date Thu Apr 1 06:06:34.163 pm 2021
base hex  timestamps absolute
internal events logged
// version 10.0.1
Begin TriggerBlock Thu Apr 1 06:06:34.163 pm 2021
   0.000000 Start of measurement
   0.000174 1  118             Tx   d 4 01 00 00 00  Length = 168000 BitCount = 87 ID = 280
   0.000366 1  362             Tx   d 5 00 00 00 00 00  Length = 186000 BitCount = 96 ID = 866
   0.200118 1  250             Tx   d 1 00  Length = 112000 BitCount = 59 ID = 592
   0.200236 1  270             Tx   d 1 00  Length = 112000 BitCount = 59 ID = 624
   0.400118 1  250             Tx   d 1 00  Length = 112000 BitCount = 59 ID = 592
   0.400236 1  270             Tx   d 1 00  Length = 112000 BitCount = 59 ID = 624
   0.600118 1  250             Tx   d 1 00  Length = 112000 BitCount = 59 ID = 592
   0.600236 1  270             Tx   d 1 00  Length = 112000 BitCount = 59 ID = 624
   0.800118 1  250             Tx   d 1 00  Length = 112000 BitCount = 59 ID = 592
   0.800236 1  270             Tx   d 1 00  Length = 112000 BitCount = 59 ID = 624
   1.000000 1  Statistic: D 10 R 0 XD 0 XR 0 E 0 O 0 B 0.14%
   1.000118 1  250             Tx   d 1 00  Length = 112000 BitCount = 59 ID = 592
   1.000236 1  270             Tx   d 1 00  Length = 112000 BitCount = 59 ID = 624
   1.200118 1  250             Tx   d 1 00  Length = 112000 BitCount = 59 ID = 592
   1.200236 1  270             Tx   d 1 00  Length = 112000 BitCount = 59 ID = 624
   1.400118 1  250             Tx   d 1 00  Length = 112000 BitCount = 59 ID = 592
   1.400236 1  270             Tx   d 1 00  Length = 112000 BitCount = 59 ID = 624
   1.430134 1  121             Tx   d 2 14 00  Length = 128000 BitCount = 67 ID = 289
   1.430306 1  118             Tx   d 4 01 00 14 00  Length = 166000 BitCount = 86 ID = 280
   1.430440 1  121             Tx   d 2 14 00  Length = 128000 BitCount = 67 ID = 289
   1.430612 1  118             Tx   d 4 01 00 14 00  Length = 166000 BitCount = 86 ID = 280
   1.430800 1  362             Tx   d 5 AE 00 00 00 00  Length = 182000 BitCount = 94 ID = 866
   1.430988 1  362             Tx   d 5 AE 00 00 00 00  Length = 182000 BitCount = 94 ID = 866
   1.600118 1  250             Tx   d 1 00  Length = 112000 BitCount = 59 ID = 592
   1.600236 1  270             Tx   d 1 00  Length = 112000 BitCount = 59 ID = 624
   1.800118 1  250             Tx   d 1 00  Length = 112000 BitCount = 59 ID = 592
   1.800236 1  270             Tx   d 1 00  Length = 112000 BitCount = 59 ID = 624
   1.870134 1  121             Tx   d 2 1E 00  Length = 128000 BitCount = 67 ID = 289
   1.870302 1  118             Tx   d 4 01 00 1E 00  Length = 162000 BitCount = 84 ID = 280
   1.870436 1  121             Tx   d 2 1E 00  Length = 128000 BitCount = 67 ID = 289
   1.870604 1  118             Tx   d 4 01 00 1E 00  Length = 162000 BitCount = 84 ID = 280
   1.870736 1  121             Tx   d 2 28 00  Length = 126000 BitCount = 66 ID = 289
   1.870906 1  118             Tx   d 4 01 00 28 00  Length = 164000 BitCount = 85 ID = 280
   1.871038 1  121             Tx   d 2 28 00  Length = 126000 BitCount = 66 ID = 289
   1.871208 1  118             Tx   d 4 01 00 28 00  Length = 164000 BitCount = 85 ID = 280
   1.871338 1  121             Tx   d 2 32 00  Length = 124000 BitCount = 65 ID = 289
   1.871508 1  118             Tx   d 4 01 00 32 00  Length = 164000 BitCount = 85 ID = 280
   1.871638 1  121             Tx   d 2 32 00  Length = 124000 BitCount = 65 ID = 289
   1.871808 1  118             Tx   d 4 01 00 32 00  Length = 164000 BitCount = 85 ID = 280
   1.871942 1  121             Tx   d 2 3C 00  Length = 128000 BitCount = 67 ID = 289
   1.872114 1  118             Tx   d 4 01 00 3C 00  Length = 166000 BitCount = 86 ID = 280
   1.872248 1  121             Tx   d 2 3C 00  Length = 128000 BitCount = 67 ID = 289
   1.872420 1  118             Tx   d 4 01 00 3C 00  Length = 166000 BitCount = 86 ID = 280
   1.872610 1  362             Tx   d 5 06 01 00 00 00  Length = 184000 BitCount = 95 ID = 866
   1.872800 1  362             Tx   d 5 06 01 00 00 00  Length = 184000 BitCount = 95 ID = 866
   1.872986 1  362             Tx   d 5 5D 01 00 00 00  Length = 180000 BitCount = 93 ID = 866
   1.873172 1  362             Tx   d 5 5D 01 00 00 00  Length = 180000 BitCount = 93 ID = 866
   1.873358 1  362             Tx   d 5 B4 01 00 00 00  Length = 180000 BitCount = 93 ID = 866
   1.873544 1  362             Tx   d 5 B4 01 00 00 00  Length = 180000 BitCount = 93 ID = 866
   1.873732 1  362             Tx   d 5 0C 02 00 00 00  Length = 182000 BitCount = 94 ID = 866
   1.873920 1  362             Tx   d 5 0C 02 00 00 00  Length = 182000 BitCount = 94 ID = 866
   1.980130 1  121             Tx   d 2 46 00  Length = 124000 BitCount = 65 ID = 289
   1.980300 1  118             Tx   d 4 01 00 46 00  Length = 164000 BitCount = 85 ID = 280
   1.980430 1  121             Tx   d 2 46 00  Length = 124000 BitCount = 65 ID = 289
   1.980600 1  118             Tx   d 4 01 00 46 00  Length = 164000 BitCount = 85 ID = 280
   1.980734 1  121             Tx   d 2 50 00  Length = 128000 BitCount = 67 ID = 289
   1.980902 1  118             Tx   d 4 01 00 50 00  Length = 162000 BitCount = 84 ID = 280
   1.981036 1  121             Tx   d 2 50 00  Length = 128000 BitCount = 67 ID = 289
   1.981204 1  118             Tx   d 4 01 00 50 00  Length = 162000 BitCount = 84 ID = 280
   1.981334 1  121             Tx   d 2 5A 00  Length = 124000 BitCount = 65 ID = 289
   1.981506 1  118             Tx   d 4 01 00 5A 00  Length = 166000 BitCount = 86 ID = 280
   1.981636 1  121             Tx   d 2 5A 00  Length = 124000 BitCount = 65 ID = 289
   1.981808 1  118             Tx   d 4 01 00 5A 00  Length = 166000 BitCount = 86 ID = 280
   1.981940 1  121             Tx   d 2 64 00  Length = 126000 BitCount = 66 ID = 289
   1.982108 1  118             Tx   d 4 01 00 64 00  Length = 162000 BitCount = 84 ID = 280
   1.982240 1  121             Tx   d 2 64 00  Length = 126000 BitCount = 66 ID = 289
   1.982408 1  118             Tx   d 4 01 00 64 00  Length = 162000 BitCount = 84 ID = 280
   1.982598 1  362             Tx   d 5 63 02 00 00 00  Length = 184000 BitCount = 95 ID = 866
   1.982788 1  362             Tx   d 5 63 02 00 00 00  Length = 184000 BitCount = 95 ID = 866
   1.982978 1  362             Tx   d 5 BA 02 00 00 00  Length = 184000 BitCount = 95 ID = 866
   1.983168 1  362             Tx   d 5 BA 02 00 00 00  Length = 184000 BitCount = 95 ID = 866
   1.983356 1  362             Tx   d 5 12 03 00 00 00  Length = 182000 BitCount = 94 ID = 866
   1.983544 1  362             Tx   d 5 12 03 00 00 00  Length = 182000 BitCount = 94 ID = 866
   1.983730 1  362             Tx   d 5 69 03 00 00 00  Length = 180000 BitCount = 93 ID = 866
   1.983916 1  362             Tx   d 5 69 03 00 00 00  Length = 180000 BitCount = 93 ID = 866
   2.000000 1  Statistic: D 64 R 0 XD 0 XR 0 E 0 O 0 B 1.10%
   2.000118 1  250             Tx   d 1 00  Length = 112000 BitCount = 59 ID = 592
   2.000236 1  270             Tx   d 1 00  Length = 112000 BitCount = 59 ID = 624
   2.090130 1  121             Tx   d 2 6E 00  Length = 124000 BitCount = 65 ID = 289
   2.090300 1  118             Tx   d 4 01 00 6E 00  Length = 164000 BitCount = 85 ID = 280
   2.090430 1  121             Tx   d 2 6E 00  Length = 124000 BitCount = 65 ID = 289
   2.090600 1  118             Tx   d 4 01 00 6E 00  Length = 164000 BitCount = 85 ID = 280
   2.090732 1  121             Tx   d 2 78 00  Length = 126000 BitCount = 66 ID = 289
   2.090902 1  118             Tx   d 4 01 00 78 00  Length = 164000 BitCount = 85 ID = 280
   2.091034 1  121             Tx   d 2 78 00  Length = 126000 BitCount = 66 ID = 289
   2.091204 1  118             Tx   d 4 01 00 78 00  Length = 164000 BitCount = 85 ID = 280
   2.091338 1  121             Tx   d 2 82 00  Length = 128000 BitCount = 67 ID = 289
   2.091508 1  118             Tx   d 4 01 00 82 00  Length = 164000 BitCount = 85 ID = 280
   2.091642 1  121             Tx   d 2 82 00  Length = 128000 BitCount = 67 ID = 289
   2.091812 1  118             Tx   d 4 01 00 82 00  Length = 164000 BitCount = 85 ID = 280
   2.091930 1  250             Tx   d 1 01  Length = 112000 BitCount = 59 ID = 592
   2.092048 1  250             Tx   d 1 01  Length = 112000 BitCount = 59 ID = 592
   2.092166 1  250             Tx   d 1 01  Length = 112000 BitCount = 59 ID = 592
   2.092284 1  250             Tx   d 1 01  Length = 112000 BitCount = 59 ID = 592
   2.092402 1  250             Tx   d 1 01  Length = 112000 BitCount = 59 ID = 592
   2.092520 1  250             Tx   d 1 01  Length = 112000 BitCount = 59 ID = 592
   2.092636 1  270             Tx   d 1 01  Length = 110000 BitCount = 58 ID = 624
   2.092752 1  270             Tx   d 1 01  Length = 110000 BitCount = 58 ID = 624
   2.092868 1  270             Tx   d 1 01  Length = 110000 BitCount = 58 ID = 624
   2.092984 1  270             Tx   d 1 01  Length = 110000 BitCount = 58 ID = 624
   2.093100 1  270             Tx   d 1 01  Length = 110000 BitCount = 58 ID = 624
   2.093216 1  270             Tx   d 1 01  Length = 110000 BitCount = 58 ID = 624
   2.093404 1  362             Tx   d 5 C0 03 00 00 00  Length = 182000 BitCount = 94 ID = 866
   2.093592 1  362             Tx   d 5 C0 03 00 00 00  Length = 182000 BitCount = 94 ID = 866
   2.093780 1  362             Tx   d 5 18 04 00 00 00  Length = 182000 BitCount = 94 ID = 866
   2.093968 1  362             Tx   d 5 18 04 00 00 00  Length = 182000 BitCount = 94 ID = 866
   2.094156 1  362             Tx   d 5 6F 04 00 00 00  Length = 182000 BitCount = 94 ID = 866
   2.094344 1  362             Tx   d 5 6F 04 00 00 00  Length = 182000 BitCount = 94 ID = 866
   2.200132 1  121             Tx   d 2 8C 00  Length = 126000 BitCount = 66 ID = 289
   2.200304 1  118             Tx   d 4 01 00 8C 00  Length = 166000 BitCount = 86 ID = 280
   2.200436 1  121             Tx   d 2 8C 00  Length = 126000 BitCount = 66 ID = 289
   2.200608 1  118             Tx   d 4 01 00 8C 00  Length = 166000 BitCount = 86 ID = 280
   2.200742 1  121             Tx   d 2 96 00  Length = 128000 BitCount = 67 ID = 289
   2.200910 1  118             Tx   d 4 01 00 96 00  Length = 162000 BitCount = 84 ID = 280
   2.201044 1  121             Tx   d 2 96 00  Length = 128000 BitCount = 67 ID = 289
   2.201212 1  118             Tx   d 4 01 00 96 00  Length = 162000 BitCount = 84 ID = 280
   2.201344 1  121             Tx   d 2 A0 00  Length = 126000 BitCount = 66 ID = 289
   2.201512 1  118             Tx   d 4 01 00 A0 00  Length = 162000 BitCount = 84 ID = 280
   2.201644 1  121             Tx   d 2 A0 00  Length = 126000 BitCount = 66 ID = 289
   2.201812 1  118             Tx   d 4 01 00 A0 00  Length = 162000 BitCount = 84 ID = 280
   2.201944 1  121             Tx   d 2 AA 00  Length = 126000 BitCount = 66 ID = 289
   2.202112 1  118             Tx   d 4 01 00 AA 00  Length = 162000 BitCount = 84 ID = 280
   2.202244 1  121             Tx   d 2 AA 00  Length = 126000 BitCount = 66 ID = 289
   2.202412 1  118             Tx   d 4 01 00 AA 00  Length = 162000 BitCount = 84 ID = 280
   2.202546 1  121             Tx   d 2 B4 00  Length = 128000 BitCount = 67 ID = 289
   2.202714 1  118             Tx   d 4 01 00 B4 00  Length = 162000 BitCount = 84 ID = 280
   2.202848 1  121             Tx   d 2 B4 00  Length = 128000 BitCount = 67 ID = 289
   2.203016 1  118             Tx   d 4 01 00 B4 00  Length = 162000 BitCount = 84 ID = 280
   2.203134 1  250             Tx   d 1 01  Length = 112000 BitCount = 59 ID = 592
   2.203252 1  250             Tx   d 1 01  Length = 112000 BitCount = 59 ID = 592
   2.203370 1  250             Tx   d 1 01  Length = 112000 BitCount = 59 ID = 592
   2.203488 1  250             Tx   d 1 01  Length = 112000 BitCount = 59 ID = 592
   2.203606 1  250             Tx   d 1 01  Length = 112000 BitCount = 59 ID = 592
   2.203724 1  250             Tx   d 1 01  Length = 112000 BitCount = 59 ID = 592
   2.203842 1  250             Tx   d 1 01  Length = 112000 BitCount = 59 ID = 592
   2.203960 1  250             Tx   d 1 01  Length = 112000 BitCount = 59 ID = 592
   2.204078 1  250             Tx   d 1 01  Length = 112000 BitCount = 59 ID = 592
   2.204196 1  250             Tx   d 1 01  Length = 112000 BitCount = 59 ID = 592
   2.204314 1  250             Tx   d 1 01  Length = 112000 BitCount = 59 ID = 592
   2.204430 1  270             Tx   d 1 01  Length = 110000 BitCount = 58 ID = 624
   2.204546 1  270             Tx   d 1 01  Length = 110000 BitCount = 58 ID = 624
   2.204662 1  270             Tx   d 1 01  Length = 110000 BitCount = 58 ID = 624
   2.204778 1  270             Tx   d 1 01  Length = 110000 BitCount = 58 ID = 624
   2.204894 1  270             Tx   d 1 01  Length = 110000 BitCount = 58 ID = 624
   2.205010 1  270             Tx   d 1 01  Length = 110000 BitCount = 58 ID = 624
   2.205126 1  270             Tx   d 1 01  Length = 110000 BitCount = 58 ID = 624
   2.205242 1  270             Tx   d 1 01  Length = 110000 BitCount = 58 ID = 624
   2.205358 1  270             Tx   d 1 01  Length = 110000 BitCount = 58 ID = 624
   2.205474 1  270             Tx   d 1 01  Length = 110000 BitCount = 58 ID = 624
   2.205590 1  270             Tx   d 1 01  Length = 110000 BitCount = 58 ID = 624
   2.205778 1  362             Tx   d 5 C7 04 00 00 00  Length = 182000 BitCount = 94 ID = 866
   2.205966 1  362             Tx   d 5 C7 04 00 00 00  Length = 182000 BitCount = 94 ID = 866
   2.206154 1  362             Tx   d 5 1E 05 00 00 00  Length = 182000 BitCount = 94 ID = 866
   2.206342 1  362             Tx   d 5 1E 05 00 00 00  Length = 182000 BitCount = 94 ID = 866
   2.206530 1  362             Tx   d 5 75 05 00 00 00  Length = 182000 BitCount = 94 ID = 866
   2.206718 1  362             Tx   d 5 75 05 00 00 00  Length = 182000 BitCount = 94 ID = 866
   2.206906 1  362             Tx   d 5 CD 05 00 00 00  Length = 182000 BitCount = 94 ID = 866
   2.207094 1  362             Tx   d 5 CD 05 00 00 00  Length = 182000 BitCount = 94 ID = 866
   2.207284 1  362             Tx   d 5 24 06 00 00 00  Length = 184000 BitCount = 95 ID = 866
   2.207474 1  362             Tx   d 5 24 06 00 00 00  Length = 184000 BitCount = 95 ID = 866
   2.310134 1  121             Tx   d 2 BE 00  Length = 128000 BitCount = 67 ID = 289
   2.310304 1  118             Tx   d 4 01 00 BE 00  Length = 164000 BitCount = 85 ID = 280
   2.310438 1  121             Tx   d 2 BE 00  Length = 128000 BitCount = 67 ID = 289
   2.310608 1  118             Tx   d 4 01 00 BE 00  Length = 164000 BitCount = 85 ID = 280
   2.310742 1  121             Tx   d 2 C8 00  Length = 128000 BitCount = 67 ID = 289
   2.310910 1  118             Tx   d 4 01 00 C8 00  Length = 162000 BitCount = 84 ID = 280
   2.311044 1  121             Tx   d 2 C8 00  Length = 128000 BitCount = 67 ID = 289
   2.311212 1  118             Tx   d 4 01 00 C8 00  Length = 162000 BitCount = 84 ID = 280
   2.311344 1  121             Tx   d 2 D2 00  Length = 126000 BitCount = 66 ID = 289
   2.311512 1  118             Tx   d 4 01 00 D2 00  Length = 162000 BitCount = 84 ID = 280
   2.311644 1  121             Tx   d 2 D2 00  Length = 126000 BitCount = 66 ID = 289
   2.311812 1  118             Tx   d 4 01 00 D2 00  Length = 162000 BitCount = 84 ID = 280
   2.311930 1  250             Tx   d 1 01  Length = 112000 BitCount = 59 ID = 592
   2.312048 1  250             Tx   d 1 01  Length = 112000 BitCount = 59 ID = 592
   2.312166 1  250             Tx   d 1 01  Length = 112000 BitCount = 59 ID = 592
   2.312284 1  250             Tx   d 1 01  Length = 112000 BitCount = 59 ID = 592
   2.312402 1  250             Tx   d 1 01  Length = 112000 BitCount = 59 ID = 592
   2.312520 1  250             Tx   d 1 01  Length = 112000 BitCount = 59 ID = 592
   2.312636 1  270             Tx   d 1 01  Length = 110000 BitCount = 58 ID = 624
   2.312752 1  270             Tx   d 1 01  Length = 110000 BitCount = 58 ID = 624
   2.312868 1  270             Tx   d 1 01  Length = 110000 BitCount = 58 ID = 624
   2.312984 1  270             Tx   d 1 01  Length = 110000 BitCount = 58 ID = 624
   2.313100 1  270             Tx   d 1 01  Length = 110000 BitCount = 58 ID = 624
   2.313216 1  270             Tx   d 1 01  Length = 110000 BitCount = 58 ID = 624
   2.313404 1  362             Tx   d 5 7B 06 00 00 00  Length = 182000 BitCount = 94 ID = 866
   2.313592 1  362             Tx   d 5 7B 06 00 00 00  Length = 182000 BitCount = 94 ID = 866
   2.313780 1  362             Tx   d 5 D3 06 00 00 00  Length = 182000 BitCount = 94 ID = 866
   2.313968 1  362             Tx   d 5 D3 06 00 00 00  Length = 182000 BitCount = 94 ID = 866
   2.314154 1  362             Tx   d 5 2A 07 00 00 00  Length = 180000 BitCount = 93 ID = 866
   2.314340 1  362             Tx   d 5 2A 07 00 00 00  Length = 180000 BitCount = 93 ID = 866
   2.400118 1  250             Tx   d 1 01  Length = 112000 BitCount = 59 ID = 592
   2.400234 1  270             Tx   d 1 01  Length = 110000 BitCount = 58 ID = 624
   2.420134 1  121             Tx   d 2 DC 00  Length = 128000 BitCount = 67 ID = 289
   2.420302 1  118             Tx   d 4 01 00 DC 00  Length = 162000 BitCount = 84 ID = 280
   2.420436 1  121             Tx   d 2 DC 00  Length = 128000 BitCount = 67 ID = 289
   2.420604 1  118             Tx   d 4 01 00 DC 00  Length = 162000 BitCount = 84 ID = 280
   2.420736 1  121             Tx   d 2 E6 00  Length = 126000 BitCount = 66 ID = 289
   2.420902 1  118             Tx   d 4 01 00 E6 00  Length = 160000 BitCount = 83 ID = 280
   2.421034 1  121             Tx   d 2 E6 00  Length = 126000 BitCount = 66 ID = 289
   2.421200 1  118             Tx   d 4 01 00 E6 00  Length = 160000 BitCount = 83 ID = 280
   2.421334 1  121             Tx   d 2 F0 00  Length = 128000 BitCount = 67 ID = 289
   2.421502 1  118             Tx   d 4 01 00 F0 00  Length = 162000 BitCount = 84 ID = 280
   2.421636 1  121             Tx   d 2 F0 00  Length = 128000 BitCount = 67 ID = 289
   2.421804 1  118             Tx   d 4 01 00 F0 00  Length = 162000 BitCount = 84 ID = 280
   2.421940 1  121             Tx   d 2 FA 00  Length = 130000 BitCount = 68 ID = 289
   2.422108 1  118             Tx   d 4 01 00 FA 00  Length = 162000 BitCount = 84 ID = 280
   2.422244 1  121             Tx   d 2 FA 00  Length = 130000 BitCount = 68 ID = 289
   2.422412 1  118             Tx   d 4 01 00 FA 00  Length = 162000 BitCount = 84 ID = 280
   2.422530 1  250             Tx   d 1 01  Length = 112000 BitCount = 59 ID = 592
   2.422648 1  250             Tx   d 1 01  Length = 112000 BitCount = 59 ID = 592
   2.422766 1  250             Tx   d 1 01  Length = 112000 BitCount = 59 ID = 592
   2.422884 1  250             Tx   d 1 01  Length = 112000 BitCount = 59 ID = 592
   2.423002 1  250             Tx   d 1 01  Length = 112000 BitCount = 59 ID = 592
   2.423120 1  250             Tx   d 1 01  Length = 112000 BitCount = 59 ID = 592
   2.423238 1  250             Tx   d 1 01  Length = 112000 BitCount = 59 ID = 592
   2.423356 1  250             Tx   d 1 01  Length = 112000 BitCount = 59 ID = 592
   2.423472 1  270             Tx   d 1 01  Length = 110000 BitCount = 58 ID = 624
   2.423588 1  270             Tx   d 1 01  Length = 110000 BitCount = 58 ID = 624
   2.423704 1  270             Tx   d 1 01  Length = 110000 BitCount = 58 ID = 624
   2.423820 1  270             Tx   d 1 01  Length = 110000 BitCount = 58 ID = 624
   2.423936 1  270             Tx   d 1 01  Length = 110000 BitCount = 58 ID = 624
   2.424052 1  270             Tx   d 1 01  Length = 110000 BitCount = 58 ID = 624
   2.424168 1  270             Tx   d 1 01  Length = 110000 BitCount = 58 ID = 624
   2.424284 1  270             Tx   d 1 01  Length = 110000 BitCount = 58 ID = 624
   2.424472 1  362             Tx   d 5 81 07 00 00 00  Length = 182000 BitCount = 94 ID = 866
   2.424660 1  362             Tx   d 5 81 07 00 00 00  Length = 182000 BitCount = 94 ID = 866
   2.424848 1  362             Tx   d 5 D9 07 00 00 00  Length = 182000 BitCount = 94 ID = 866
   2.425036 1  362             Tx   d 5 D9 07 00 00 00  Length = 182000 BitCount = 94 ID = 866
   2.425224 1  362             Tx   d 5 30 08 00 00 00  Length = 182000 BitCount = 94 ID = 866
   2.425412 1  362             Tx   d 5 30 08 00 00 00  Length = 182000 BitCount = 94 ID = 866
   2.425600 1  362             Tx   d 5 88 08 00 00 00  Length = 182000 BitCount = 94 ID = 866
   2.425788 1  362             Tx   d 5 88 08 00 00 00  Length = 182000 BitCount = 94 ID = 866
   2.530132 1  121             Tx   d 2 04 01  Length = 126000 BitCount = 66 ID = 289
   2.530302 1  118             Tx   d 4 01 00 04 01  Length = 164000 BitCount = 85 ID = 280
   2.530434 1  121             Tx   d 2 04 01  Length = 126000 BitCount = 66 ID = 289
   2.530604 1  118             Tx   d 4 01 00 04 01  Length = 164000 BitCount = 85 ID = 280
   2.530738 1  121             Tx   d 2 0E 01  Length = 128000 BitCount = 67 ID = 289
   2.530908 1  118             Tx   d 4 01 00 0E 01  Length = 164000 BitCount = 85 ID = 280
   2.531042 1  121             Tx   d 2 0E 01  Length = 128000 BitCount = 67 ID = 289
   2.531212 1  118             Tx   d 4 01 00 0E 01  Length = 164000 BitCount = 85 ID = 280
   2.531346 1  121             Tx   d 2 18 01  Length = 128000 BitCount = 67 ID = 289
   2.531516 1  118             Tx   d 4 01 00 18 01  Length = 164000 BitCount = 85 ID = 280
   2.531650 1  121             Tx   d 2 18 01  Length = 128000 BitCount = 67 ID = 289
   2.531820 1  118             Tx   d 4 01 00 18 01  Length = 164000 BitCount = 85 ID = 280
   2.531950 1  121             Tx   d 2 22 01  Length = 124000 BitCount = 65 ID = 289
   2.532120 1  118             Tx   d 4 01 00 22 01  Length = 164000 BitCount = 85 ID = 280
   2.532250 1  121             Tx   d 2 22 01  Length = 124000 BitCount = 65 ID = 289
   2.532420 1  118             Tx   d 4 01 00 22 01  Length = 164000 BitCount = 85 ID = 280
   2.532538 1  250             Tx   d 1 01  Length = 112000 BitCount = 59 ID = 592
   2.532656 1  250             Tx   d 1 01  Length = 112000 BitCount = 59 ID = 592
   2.532774 1  250             Tx   d 1 01  Length = 112000 BitCount = 59 ID = 592
   2.532892 1  250             Tx   d 1 01  Length = 112000 BitCount = 59 ID = 592
   2.533010 1  250             Tx   d 1 01  Length = 112000 BitCount = 59 ID = 592
   2.533128 1  250             Tx   d 1 01  Length = 112000 BitCount = 59 ID = 592
   2.533246 1  250             Tx   d 1 01  Length = 112000 BitCount = 59 ID = 592
   2.533364 1  250             Tx   d 1 01  Length = 112000 BitCount = 59 ID = 592
   2.533480 1  270             Tx   d 1 01  Length = 110000 BitCount = 58 ID = 624
   2.533596 1  270             Tx   d 1 01  Length = 110000 BitCount = 58 ID = 624
   2.533712 1  270             Tx   d 1 01  Length = 110000 BitCount = 58 ID = 624
   2.533828 1  270             Tx   d 1 01  Length = 110000 BitCount = 58 ID = 624
   2.533944 1  270             Tx   d 1 01  Length = 110000 BitCount = 58 ID = 624
   2.534060 1  270             Tx   d 1 01  Length = 110000 BitCount = 58 ID = 624
   2.534176 1  270             Tx   d 1 01  Length = 110000 BitCount = 58 ID = 624
   2.534292 1  270             Tx   d 1 01  Length = 110000 BitCount = 58 ID = 624
   2.534482 1  362             Tx   d 5 DF 08 00 00 00  Length = 184000 BitCount = 95 ID = 866
   2.534672 1  362             Tx   d 5 DF 08 00 00 00  Length = 184000 BitCount = 95 ID = 866
   2.534858 1  362             Tx   d 5 36 09 00 00 00  Length = 180000 BitCount = 93 ID = 866
   2.535044 1  362             Tx   d 5 36 09 00 00 00  Length = 180000 BitCount = 93 ID = 866
   2.535230 1  362             Tx   d 5 8E 09 00 00 00  Length = 180000 BitCount = 93 ID = 866
   2.535416 1  362             Tx   d 5 8E 09 00 00 00  Length = 180000 BitCount = 93 ID = 866
   2.535602 1  362             Tx   d 5 E5 09 00 00 00  Length = 180000 BitCount = 93 ID = 866
   2.535788 1  362             Tx   d 5 E5 09 00 00 00  Length = 180000 BitCount = 93 ID = 866
   2.600118 1  250             Tx   d 1 01  Length = 112000 BitCount = 59 ID = 592
   2.600234 1  270             Tx   d 1 01  Length = 110000 BitCount = 58 ID = 624
   2.640130 1  121             Tx   d 2 2C 01  Length = 124000 BitCount = 65 ID = 289
   2.640298 1  118             Tx   d 4 01 00 2C 01  Length = 162000 BitCount = 84 ID = 280
   2.640428 1  121             Tx   d 2 2C 01  Length = 124000 BitCount = 65 ID = 289
   2.640596 1  118             Tx   d 4 01 00 2C 01  Length = 162000 BitCount = 84 ID = 280
   2.640726 1  121             Tx   d 2 36 01  Length = 124000 BitCount = 65 ID = 289
   2.640896 1  118             Tx   d 4 01 00 36 01  Length = 164000 BitCount = 85 ID = 280
   2.641026 1  121             Tx   d 2 36 01  Length = 124000 BitCount = 65 ID = 289
   2.641196 1  118             Tx   d 4 01 00 36 01  Length = 164000 BitCount = 85 ID = 280
   2.641330 1  121             Tx   d 2 40 01  Length = 128000 BitCount = 67 ID = 289
   2.641498 1  118             Tx   d 4 01 00 40 01  Length = 162000 BitCount = 84 ID = 280
   2.641632 1  121             Tx   d 2 40 01  Length = 128000 BitCount = 67 ID = 289
   2.641800 1  118             Tx   d 4 01 00 40 01  Length = 162000 BitCount = 84 ID = 280
   2.641932 1  121             Tx   d 2 4A 01  Length = 126000 BitCount = 66 ID = 289
   2.642098 1  118             Tx   d 4 01 00 4A 01  Length = 160000 BitCount = 83 ID = 280
   2.642230 1  121             Tx   d 2 4A 01  Length = 126000 BitCount = 66 ID = 289
   2.642396 1  118             Tx   d 4 01 00 4A 01  Length = 160000 BitCount = 83 ID = 280
   2.642514 1  250             Tx   d 1 01  Length = 112000 BitCount = 59 ID = 592
   2.642632 1  250             Tx   d 1 01  Length = 112000 BitCount = 59 ID = 592
   2.642750 1  250             Tx   d 1 01  Length = 112000 BitCount = 59 ID = 592
   2.642868 1  250             Tx   d 1 01  Length = 112000 BitCount = 59 ID = 592
   2.642986 1  250             Tx   d 1 01  Length = 112000 BitCount = 59 ID = 592
   2.643104 1  250             Tx   d 1 01  Length = 112000 BitCount = 59 ID = 592
   2.643222 1  250             Tx   d 1 01  Length = 112000 BitCount = 59 ID = 592
   2.643340 1  250             Tx   d 1 01  Length = 112000 BitCount = 59 ID = 592
   2.643456 1  270             Tx   d 1 01  Length = 110000 BitCount = 58 ID = 624
   2.643572 1  270             Tx   d 1 01  Length = 110000 BitCount = 58 ID = 624
   2.643688 1  270             Tx   d 1 01  Length = 110000 BitCount = 58 ID = 624
   2.643804 1  270             Tx   d 1 01  Length = 110000 BitCount = 58 ID = 624
   2.643920 1  270             Tx   d 1 01  Length = 110000 BitCount = 58 ID = 624
   2.644036 1  270             Tx   d 1 01  Length = 110000 BitCount = 58 ID = 624
   2.644152 1  270             Tx   d 1 01  Length = 110000 BitCount = 58 ID = 624
   2.644268 1  270             Tx   d 1 01  Length = 110000 BitCount = 58 ID = 624
   2.644456 1  362             Tx   d 5 3C 0A 00 00 00  Length = 182000 BitCount = 94 ID = 866
   2.644644 1  362             Tx   d 5 3C 0A 00 00 00  Length = 182000 BitCount = 94 ID = 866
   2.644832 1  362             Tx   d 5 94 0A 00 00 00  Length = 182000 BitCount = 94 ID = 866
   2.645020 1  362             Tx   d 5 94 0A 00 00 00  Length = 182000 BitCount = 94 ID = 866
   2.645208 1  362             Tx   d 5 EB 0A 00 00 00  Length = 182000 BitCount = 94 ID = 866
   2.645396 1  362             Tx   d 5 EB 0A 00 00 00  Length = 182000 BitCount = 94 ID = 866
   2.645584 1  362             Tx   d 5 42 0B 00 00 00  Length = 182000 BitCount = 94 ID = 866
   2.645772 1  362             Tx   d 5 42 0B 00 00 00  Length = 182000 BitCount = 94 ID = 866
   2.750130 1  121             Tx   d 2 54 01  Length = 124000 BitCount = 65 ID = 289
   2.750298 1  118             Tx   d 4 01 00 54 01  Length = 162000 BitCount = 84 ID = 280
   2.750428 1  121             Tx   d 2 54 01  Length = 124000 BitCount = 65 ID = 289
   2.750596 1  118             Tx   d 4 01 00 54 01  Length = 162000 BitCount = 84 ID = 280
   2.750730 1  121             Tx   d 2 5E 01  Length = 128000 BitCount = 67 ID = 289
   2.750896 1  118             Tx   d 4 01 00 5E 01  Length = 160000 BitCount = 83 ID = 280
   2.751030 1  121             Tx   d 2 5E 01  Length = 128000 BitCount = 67 ID = 289
   2.751196 1  118             Tx   d 4 01 00 5E 01  Length = 160000 BitCount = 83 ID = 280
   2.751328 1  121             Tx   d 2 68 01  Length = 126000 BitCount = 66 ID = 289
   2.751496 1  118             Tx   d 4 01 00 68 01  Length = 162000 BitCount = 84 ID = 280
   2.751628 1  121             Tx   d 2 68 01  Length = 126000 BitCount = 66 ID = 289
   2.751796 1  118             Tx   d 4 01 00 68 01  Length = 162000 BitCount = 84 ID = 280
   2.751914 1  250             Tx   d 1 01  Length = 112000 BitCount = 59 ID = 592
   2.752032 1  250             Tx   d 1 01  Length = 112000 BitCount = 59 ID = 592
   2.752150 1  250             Tx   d 1 01  Length = 112000 BitCount = 59 ID = 592
   2.752268 1  250             Tx   d 1 01  Length = 112000 BitCount = 59 ID = 592
   2.752386 1  250             Tx   d 1 01  Length = 112000 BitCount = 59 ID = 592
   2.752504 1  250             Tx   d 1 01  Length = 112000 BitCount = 59 ID = 592
   2.752620 1  270             Tx   d 1 01  Length = 110000 BitCount = 58 ID = 624
   2.752736 1  270             Tx   d 1 01  Length = 110000 BitCount = 58 ID = 624
   2.752852 1  270             Tx   d 1 01  Length = 110000 BitCount = 58 ID = 624
   2.752968 1  270             Tx   d 1 01  Length = 110000 BitCount = 58 ID = 624
   2.753084 1  270             Tx   d 1 01  Length = 110000 BitCount = 58 ID = 624
   2.753200 1  270             Tx   d 1 01  Length = 110000 BitCount = 58 ID = 624
   2.753388 1  362             Tx   d 5 9A 0B 00 00 00  Length = 182000 BitCount = 94 ID = 866
   2.753576 1  362             Tx   d 5 9A 0B 00 00 00  Length = 182000 BitCount = 94 ID = 866
   2.753764 1  362             Tx   d 5 F1 0B 00 00 00  Length = 182000 BitCount = 94 ID = 866
   2.753952 1  362             Tx   d 5 F1 0B 00 00 00  Length = 182000 BitCount = 94 ID = 866
   2.754142 1  362             Tx   d 5 48 0C 00 00 00  Length = 184000 BitCount = 95 ID = 866
   2.754332 1  362             Tx   d 5 48 0C 00 00 00  Length = 184000 BitCount = 95 ID = 866
   2.800118 1  250             Tx   d 1 01  Length = 112000 BitCount = 59 ID = 592
   2.800234 1  270             Tx   d 1 01  Length = 110000 BitCount = 58 ID = 624
   2.860130 1  121             Tx   d 2 72 01  Length = 124000 BitCount = 65 ID = 289
   2.860296 1  118             Tx   d 4 01 00 72 01  Length = 160000 BitCount = 83 ID = 280
   2.860426 1  121             Tx   d 2 72 01  Length = 124000 BitCount = 65 ID = 289
   2.860592 1  118             Tx   d 4 01 00 72 01  Length = 160000 BitCount = 83 ID = 280
   2.860726 1  121             Tx   d 2 7C 01  Length = 128000 BitCount = 67 ID = 289
   2.860896 1  118             Tx   d 4 01 00 7C 01  Length = 164000 BitCount = 85 ID = 280
   2.861030 1  121             Tx   d 2 7C 01  Length = 128000 BitCount = 67 ID = 289
   2.861200 1  118             Tx   d 4 01 00 7C 01  Length = 164000 BitCount = 85 ID = 280
   2.861332 1  121             Tx   d 2 86 01  Length = 126000 BitCount = 66 ID = 289
   2.861498 1  118             Tx   d 4 01 00 86 01  Length = 160000 BitCount = 83 ID = 280
   2.861630 1  121             Tx   d 2 86 01  Length = 126000 BitCount = 66 ID = 289
   2.861796 1  118             Tx   d 4 01 00 86 01  Length = 160000 BitCount = 83 ID = 280
   2.861930 1  121             Tx   d 2 90 01  Length = 128000 BitCount = 67 ID = 289
   2.862098 1  118             Tx   d 4 01 00 90 01  Length = 162000 BitCount = 84 ID = 280
   2.862232 1  121             Tx   d 2 90 01  Length = 128000 BitCount = 67 ID = 289
   2.862400 1  118             Tx   d 4 01 00 90 01  Length = 162000 BitCount = 84 ID = 280
   2.862518 1  250             Tx   d 1 01  Length = 112000 BitCount = 59 ID = 592
   2.862636 1  250             Tx   d 1 01  Length = 112000 BitCount = 59 ID = 592
   2.862754 1  250             Tx   d 1 01  Length = 112000 BitCount = 59 ID = 592
   2.862872 1  250             Tx   d 1 01  Length = 112000 BitCount = 59 ID = 592
   2.862990 1  250             Tx   d 1 01  Length = 112000 BitCount = 59 ID = 592
   2.863108 1  250             Tx   d 1 01  Length = 112000 BitCount = 59 ID = 592
   2.863226 1  250             Tx   d 1 01  Length = 112000 BitCount = 59 ID = 592
   2.863344 1  250             Tx   d 1 01  Length = 112000 BitCount = 59 ID = 592
   2.863460 1  270             Tx   d 1 01  Length = 110000 BitCount = 58 ID = 624
   2.863576 1  270             Tx   d 1 01  Length = 110000 BitCount = 58 ID = 624
   2.863692 1  270             Tx   d 1 01  Length = 110000 BitCount = 58 ID = 624
   2.863808 1  270             Tx   d 1 01  Length = 110000 BitCount = 58 ID = 624
   2.863924 1  270             Tx   d 1 01  Length = 110000 BitCount = 58 ID = 624
   2.864040 1  270             Tx   d 1 01  Length = 110000 BitCount = 58 ID = 624
   2.864156 1  270             Tx   d 1 01  Length = 110000 BitCount = 58 ID = 624
   2.864272 1  270             Tx   d 1 01  Length = 110000 BitCount = 58 ID = 624
   2.864460 1  362             Tx   d 5 A0 0C 00 00 00  Length = 182000 BitCount = 94 ID = 866
   2.864648 1  362             Tx   d 5 A0 0C 00 00 00  Length = 182000 BitCount = 94 ID = 866
   2.864836 1  362             Tx   d 5 F7 0C 00 00 00  Length = 182000 BitCount = 94 ID = 866
   2.865024 1  362             Tx   d 5 F7 0C 00 00 00  Length = 182000 BitCount = 94 ID = 866
   2.865208 1  362             Tx   d 5 4F 0D 00 00 00  Length = 178000 BitCount = 92 ID = 866
   2.865392 1  362             Tx   d 5 4F 0D 00 00 00  Length = 178000 BitCount = 92 ID = 866
   2.865578 1  362             Tx   d 5 A6 0D 00 00 00  Length = 180000 BitCount = 93 ID = 866
   2.865764 1  362             Tx   d 5 A6 0D 00 00 00  Length = 180000 BitCount = 93 ID = 866
   3.000000 1  Statistic: D 310 R 0 XD 0 XR 0 E 0 O 0 B 4.98%
   3.000118 1  250             Tx   d 1 01  Length = 112000 BitCount = 59 ID = 592
   3.000234 1  270             Tx   d 1 01  Length = 110000 BitCount = 58 ID = 624
   3.080000    SV: 2 0 0 ::BodyControl::Door = 1
   3.080000    SV: 2 0 0 ::BodyControl::Door = 1
   3.080118 1  200             Tx   d 1 00  Length = 112000 BitCount = 59 ID = 512
   3.200118 1  250             Tx   d 1 01  Length = 112000 BitCount = 59 ID = 592
   3.200234 1  270             Tx   d 1 01  Length = 110000 BitCount = 58 ID = 624
   3.400118 1  250             Tx   d 1 01  Length = 112000 BitCount = 59 ID = 592
   3.400234 1  270             Tx   d 1 01  Length = 110000 BitCount = 58 ID = 624
   3.600118 1  250             Tx   d 1 01  Length = 112000 BitCount = 59 ID = 592
   3.600234 1  270             Tx   d 1 01  Length = 110000 BitCount = 58 ID = 624
   3.800118 1  250             Tx   d 1 01  Length = 112000 BitCount = 59 ID = 592
   3.800234 1  270             Tx   d 1 01  Length = 110000 BitCount = 58 ID = 624
   4.000000 1  Statistic: D 11 R 0 XD 0 XR 0 E 0 O 0 B 0.14%
   4.000118 1  250             Tx   d 1 01  Length = 112000 BitCount = 59 ID = 592
   4.000234 1  270             Tx   d 1 01  Length = 110000 BitCount = 58 ID = 624
   4.070000    SV: 2 0 0 ::BodyControl::Door = 0
   4.070000    SV: 2 0 0 ::BodyControl::Door = 1
   4.070000    SV: 2 0 0 ::BodyControl::Door = 1
   4.070118 1  200             Tx   d 1 00  Length = 112000 BitCount = 59 ID = 512
   4.070236 1  200             Tx   d 1 00  Length = 112000 BitCount = 59 ID = 512
   4.200118 1  250             Tx   d 1 01  Length = 112000 BitCount = 59 ID = 592
   4.200234 1  270             Tx   d 1 01  Length = 110000 BitCount = 58 ID = 624
   4.400118 1  250             Tx   d 1 01  Length = 112000 BitCount = 59 ID = 592
   4.400234 1  270             Tx   d 1 01  Length = 110000 BitCount = 58 ID = 624
   4.600118 1  250             Tx   d 1 01  Length = 112000 BitCount = 59 ID = 592
   4.600234 1  270             Tx   d 1 01  Length = 110000 BitCount = 58 ID = 624
   4.620000    SV: 2 0 0 ::BodyControl::Door = 1
   4.800118 1  250             Tx   d 1 01  Length = 112000 BitCount = 59 ID = 592
   4.800234 1  270             Tx   d 1 01  Length = 110000 BitCount = 58 ID = 624
   5.000000 1  Statistic: D 12 R 0 XD 0 XR 0 E 0 O 0 B 0.16%
   5.000118 1  250             Tx   d 1 01  Length = 112000 BitCount = 59 ID = 592
   5.000234 1  270             Tx   d 1 01  Length = 110000 BitCount = 58 ID = 624
   5.000370 1  300             Tx   d 2 00 00  Length = 130000 BitCount = 68 ID = 768
   5.200118 1  250             Tx   d 1 01  Length = 112000 BitCount = 59 ID = 592
   5.200234 1  270             Tx   d 1 01  Length = 110000 BitCount = 58 ID = 624
   5.390000    SV: 2 0 0 ::BodyControl::Door = 0
   5.390118 1  200             Tx   d 1 00  Length = 112000 BitCount = 59 ID = 512
   5.400118 1  250             Tx   d 1 00  Length = 112000 BitCount = 59 ID = 592
   5.400236 1  270             Tx   d 1 00  Length = 112000 BitCount = 59 ID = 624
   5.600118 1  250             Tx   d 1 00  Length = 112000 BitCount = 59 ID = 592
   5.600236 1  270             Tx   d 1 00  Length = 112000 BitCount = 59 ID = 624
   5.800118 1  250             Tx   d 1 00  Length = 112000 BitCount = 59 ID = 592
   5.800236 1  270             Tx   d 1 00  Length = 112000 BitCount = 59 ID = 624
   6.000000 1  Statistic: D 12 R 0 XD 0 XR 0 E 0 O 0 B 0.16%
   6.000118 1  250             Tx   d 1 00  Length = 112000 BitCount = 59 ID = 592
   6.000236 1  270             Tx   d 1 00  Length = 112000 BitCount = 59 ID = 624
   6.200118 1  250             Tx   d 1 00  Length = 112000 BitCount = 59 ID = 592
   6.200236 1  270             Tx   d 1 00  Length = 112000 BitCount = 59 ID = 624
   6.400118 1  250             Tx   d 1 00  Length = 112000 BitCount = 59 ID = 592
   6.400236 1  270             Tx   d 1 00  Length = 112000 BitCount = 59 ID = 624
   6.600118 1  250             Tx   d 1 00  Length = 112000 BitCount = 59 ID = 592
   6.600236 1  270             Tx   d 1 00  Length = 112000 BitCount = 59 ID = 624
   6.710136 1  300             Tx   d 2 00 01  Length = 130000 BitCount = 68 ID = 768
   6.800118 1  250             Tx   d 1 00  Length = 112000 BitCount = 59 ID = 592
   6.800236 1  270             Tx   d 1 00  Length = 112000 BitCount = 59 ID = 624
   7.000000 1  Statistic: D 11 R 0 XD 0 XR 0 E 0 O 0 B 0.15%
   7.000118 1  250             Tx   d 1 00  Length = 112000 BitCount = 59 ID = 592
   7.000236 1  270             Tx   d 1 00  Length = 112000 BitCount = 59 ID = 624
   7.200118 1  250             Tx   d 1 00  Length = 112000 BitCount = 59 ID = 592
   7.200236 1  270             Tx   d 1 00  Length = 112000 BitCount = 59 ID = 624
   7.400118 1  250             Tx   d 1 00  Length = 112000 BitCount = 59 ID = 592
   7.400236 1  270             Tx   d 1 00  Length = 112000 BitCount = 59 ID = 624
   7.600118 1  250             Tx   d 1 00  Length = 112000 BitCount = 59 ID = 592
   7.600236 1  270             Tx   d 1 00  Length = 112000 BitCount = 59 ID = 624
   7.700134 1  300             Tx   d 2 01 00  Length = 128000 BitCount = 67 ID = 768
   7.800118 1  250             Tx   d 1 00  Length = 112000 BitCount = 59 ID = 592
   7.800236 1  270             Tx   d 1 00  Length = 112000 BitCount = 59 ID = 624
   8.000000 1  Statistic: D 11 R 0 XD 0 XR 0 E 0 O 0 B 0.15%
   8.000118 1  250             Tx   d 1 00  Length = 112000 BitCount = 59 ID = 592
   8.000236 1  270             Tx   d 1 00  Length = 112000 BitCount = 59 ID = 624
   8.200118 1  250             Tx   d 1 00  Length = 112000 BitCount = 59 ID = 592
   8.200236 1  270             Tx   d 1 00  Length = 112000 BitCount = 59 ID = 624
   8.400118 1  250             Tx   d 1 00  Length = 112000 BitCount = 59 ID = 592
   8.400236 1  270             Tx   d 1 00  Length = 112000 BitCount = 59 ID = 624
   8.600118 1  250             Tx   d 1 00  Length = 112000 BitCount = 59 ID = 592
   8.600236 1  270             Tx   d 1 00  Length = 112000 BitCount = 59 ID = 624
   8.800118 1  250             Tx   d 1 00  Length = 112000 BitCount = 59 ID = 592
   8.800236 1  270             Tx   d 1 00  Length = 112000 BitCount = 59 ID = 624
   9.000000 1  Statistic: D 10 R 0 XD 0 XR 0 E 0 O 0 B 0.13%
   9.000118 1  250             Tx   d 1 00  Length = 112000 BitCount = 59 ID = 592
   9.000236 1  270             Tx   d 1 00  Length = 112000 BitCount = 59 ID = 624
   9.130132 1  121             Tx   d 2 9A 01  Length = 126000 BitCount = 66 ID = 289
   9.130300 1  118             Tx   d 4 01 00 9A 01  Length = 162000 BitCount = 84 ID = 280
   9.130432 1  121             Tx   d 2 9A 01  Length = 126000 BitCount = 66 ID = 289
   9.130600 1  118             Tx   d 4 01 00 9A 01  Length = 162000 BitCount = 84 ID = 280
   9.130718 1  250             Tx   d 1 01  Length = 112000 BitCount = 59 ID = 592
   9.130836 1  250             Tx   d 1 01  Length = 112000 BitCount = 59 ID = 592
   9.130952 1  270             Tx   d 1 01  Length = 110000 BitCount = 58 ID = 624
   9.131068 1  270             Tx   d 1 01  Length = 110000 BitCount = 58 ID = 624
   9.131254 1  362             Tx   d 5 FD 0D 00 00 00  Length = 180000 BitCount = 93 ID = 866
   9.131440 1  362             Tx   d 5 FD 0D 00 00 00  Length = 180000 BitCount = 93 ID = 866
   9.200118 1  250             Tx   d 1 01  Length = 112000 BitCount = 59 ID = 592
   9.200234 1  270             Tx   d 1 01  Length = 110000 BitCount = 58 ID = 624
   9.400118 1  250             Tx   d 1 01  Length = 112000 BitCount = 59 ID = 592
   9.400234 1  270             Tx   d 1 01  Length = 110000 BitCount = 58 ID = 624
   9.570130 1  121             Tx   d 2 A4 01  Length = 124000 BitCount = 65 ID = 289
   9.570296 1  118             Tx   d 4 01 00 A4 01  Length = 160000 BitCount = 83 ID = 280
   9.570426 1  121             Tx   d 2 A4 01  Length = 124000 BitCount = 65 ID = 289
   9.570592 1  118             Tx   d 4 01 00 A4 01  Length = 160000 BitCount = 83 ID = 280
   9.570722 1  121             Tx   d 2 AE 01  Length = 124000 BitCount = 65 ID = 289
   9.570888 1  118             Tx   d 4 01 00 AE 01  Length = 160000 BitCount = 83 ID = 280
   9.571018 1  121             Tx   d 2 AE 01  Length = 124000 BitCount = 65 ID = 289
   9.571184 1  118             Tx   d 4 01 00 AE 01  Length = 160000 BitCount = 83 ID = 280
   9.571302 1  250             Tx   d 1 01  Length = 112000 BitCount = 59 ID = 592
   9.571420 1  250             Tx   d 1 01  Length = 112000 BitCount = 59 ID = 592
   9.571538 1  250             Tx   d 1 01  Length = 112000 BitCount = 59 ID = 592
   9.571656 1  250             Tx   d 1 01  Length = 112000 BitCount = 59 ID = 592
   9.571772 1  270             Tx   d 1 01  Length = 110000 BitCount = 58 ID = 624
   9.571888 1  270             Tx   d 1 01  Length = 110000 BitCount = 58 ID = 624
   9.572004 1  270             Tx   d 1 01  Length = 110000 BitCount = 58 ID = 624
   9.572120 1  270             Tx   d 1 01  Length = 110000 BitCount = 58 ID = 624
   9.572308 1  362             Tx   d 5 55 0E 00 00 00  Length = 182000 BitCount = 94 ID = 866
   9.572496 1  362             Tx   d 5 55 0E 00 00 00  Length = 182000 BitCount = 94 ID = 866
   9.572684 1  362             Tx   d 5 AC 0E 00 00 00  Length = 182000 BitCount = 94 ID = 866
   9.572872 1  362             Tx   d 5 AC 0E 00 00 00  Length = 182000 BitCount = 94 ID = 866
   9.600118 1  250             Tx   d 1 01  Length = 112000 BitCount = 59 ID = 592
   9.600234 1  270             Tx   d 1 01  Length = 110000 BitCount = 58 ID = 624
   9.680132 1  121             Tx   d 2 B8 01  Length = 126000 BitCount = 66 ID = 289
   9.680302 1  118             Tx   d 4 01 00 B8 01  Length = 164000 BitCount = 85 ID = 280
   9.680434 1  121             Tx   d 2 B8 01  Length = 126000 BitCount = 66 ID = 289
   9.680604 1  118             Tx   d 4 01 00 B8 01  Length = 164000 BitCount = 85 ID = 280
   9.680734 1  121             Tx   d 2 C2 01  Length = 124000 BitCount = 65 ID = 289
   9.680900 1  118             Tx   d 4 01 00 C2 01  Length = 160000 BitCount = 83 ID = 280
   9.681030 1  121             Tx   d 2 C2 01  Length = 124000 BitCount = 65 ID = 289
   9.681196 1  118             Tx   d 4 01 00 C2 01  Length = 160000 BitCount = 83 ID = 280
   9.681326 1  121             Tx   d 2 CC 01  Length = 124000 BitCount = 65 ID = 289
   9.681492 1  118             Tx   d 4 01 00 CC 01  Length = 160000 BitCount = 83 ID = 280
   9.681622 1  121             Tx   d 2 CC 01  Length = 124000 BitCount = 65 ID = 289
   9.681788 1  118             Tx   d 4 01 00 CC 01  Length = 160000 BitCount = 83 ID = 280
   9.681906 1  250             Tx   d 1 01  Length = 112000 BitCount = 59 ID = 592
   9.682024 1  250             Tx   d 1 01  Length = 112000 BitCount = 59 ID = 592
   9.682142 1  250             Tx   d 1 01  Length = 112000 BitCount = 59 ID = 592
   9.682260 1  250             Tx   d 1 01  Length = 112000 BitCount = 59 ID = 592
   9.682378 1  250             Tx   d 1 01  Length = 112000 BitCount = 59 ID = 592
   9.682496 1  250             Tx   d 1 01  Length = 112000 BitCount = 59 ID = 592
   9.682612 1  270             Tx   d 1 01  Length = 110000 BitCount = 58 ID = 624
   9.682728 1  270             Tx   d 1 01  Length = 110000 BitCount = 58 ID = 624
   9.682844 1  270             Tx   d 1 01  Length = 110000 BitCount = 58 ID = 624
   9.682960 1  270             Tx   d 1 01  Length = 110000 BitCount = 58 ID = 624
   9.683076 1  270             Tx   d 1 01  Length = 110000 BitCount = 58 ID = 624
   9.683192 1  270             Tx   d 1 01  Length = 110000 BitCount = 58 ID = 624
   9.683380 1  362             Tx   d 5 03 0F 00 00 00  Length = 182000 BitCount = 94 ID = 866
   9.683568 1  362             Tx   d 5 03 0F 00 00 00  Length = 182000 BitCount = 94 ID = 866
   9.683756 1  362             Tx   d 5 5B 0F 00 00 00  Length = 182000 BitCount = 94 ID = 866
   9.683944 1  362             Tx   d 5 5B 0F 00 00 00  Length = 182000 BitCount = 94 ID = 866
   9.684138 1  362             Tx   d 5 B2 0F 00 00 00  Length = 188000 BitCount = 97 ID = 866
   9.684332 1  362             Tx   d 5 B2 0F 00 00 00  Length = 188000 BitCount = 97 ID = 866
   9.790130 1  121             Tx   d 2 D6 01  Length = 124000 BitCount = 65 ID = 289
   9.790298 1  118             Tx   d 4 01 00 D6 01  Length = 162000 BitCount = 84 ID = 280
   9.790428 1  121             Tx   d 2 D6 01  Length = 124000 BitCount = 65 ID = 289
   9.790596 1  118             Tx   d 4 01 00 D6 01  Length = 162000 BitCount = 84 ID = 280
   9.790728 1  121             Tx   d 2 E0 01  Length = 126000 BitCount = 66 ID = 289
   9.790896 1  118             Tx   d 4 01 00 E0 01  Length = 162000 BitCount = 84 ID = 280
   9.791028 1  121             Tx   d 2 E0 01  Length = 126000 BitCount = 66 ID = 289
   9.791196 1  118             Tx   d 4 01 00 E0 01  Length = 162000 BitCount = 84 ID = 280
   9.791328 1  121             Tx   d 2 EA 01  Length = 126000 BitCount = 66 ID = 289
   9.791494 1  118             Tx   d 4 01 00 EA 01  Length = 160000 BitCount = 83 ID = 280
   9.791626 1  121             Tx   d 2 EA 01  Length = 126000 BitCount = 66 ID = 289
   9.791792 1  118             Tx   d 4 01 00 EA 01  Length = 160000 BitCount = 83 ID = 280
   9.791922 1  121             Tx   d 2 F4 01  Length = 124000 BitCount = 65 ID = 289
   9.792090 1  118             Tx   d 4 01 00 F4 01  Length = 162000 BitCount = 84 ID = 280
   9.792220 1  121             Tx   d 2 F4 01  Length = 124000 BitCount = 65 ID = 289
   9.792388 1  118             Tx   d 4 01 00 F4 01  Length = 162000 BitCount = 84 ID = 280
   9.792506 1  250             Tx   d 1 01  Length = 112000 BitCount = 59 ID = 592
   9.792624 1  250             Tx   d 1 01  Length = 112000 BitCount = 59 ID = 592
   9.792742 1  250             Tx   d 1 01  Length = 112000 BitCount = 59 ID = 592
   9.792860 1  250             Tx   d 1 01  Length = 112000 BitCount = 59 ID = 592
   9.792978 1  250             Tx   d 1 01  Length = 112000 BitCount = 59 ID = 592
   9.793096 1  250             Tx   d 1 01  Length = 112000 BitCount = 59 ID = 592
   9.793214 1  250             Tx   d 1 01  Length = 112000 BitCount = 59 ID = 592
   9.793332 1  250             Tx   d 1 01  Length = 112000 BitCount = 59 ID = 592
   9.793448 1  270             Tx   d 1 01  Length = 110000 BitCount = 58 ID = 624
   9.793564 1  270             Tx   d 1 01  Length = 110000 BitCount = 58 ID = 624
   9.793680 1  270             Tx   d 1 01  Length = 110000 BitCount = 58 ID = 624
   9.793796 1  270             Tx   d 1 01  Length = 110000 BitCount = 58 ID = 624
   9.793912 1  270             Tx   d 1 01  Length = 110000 BitCount = 58 ID = 624
   9.794028 1  270             Tx   d 1 01  Length = 110000 BitCount = 58 ID = 624
   9.794144 1  270             Tx   d 1 01  Length = 110000 BitCount = 58 ID = 624
   9.794260 1  270             Tx   d 1 01  Length = 110000 BitCount = 58 ID = 624
   9.794446 1  362             Tx   d 5 09 10 00 00 00  Length = 180000 BitCount = 93 ID = 866
   9.794632 1  362             Tx   d 5 09 10 00 00 00  Length = 180000 BitCount = 93 ID = 866
   9.794822 1  362             Tx   d 5 61 10 00 00 00  Length = 184000 BitCount = 95 ID = 866
   9.795012 1  362             Tx   d 5 61 10 00 00 00  Length = 184000 BitCount = 95 ID = 866
   9.795202 1  362             Tx   d 5 B8 10 00 00 00  Length = 184000 BitCount = 95 ID = 866
   9.795392 1  362             Tx   d 5 B8 10 00 00 00  Length = 184000 BitCount = 95 ID = 866
   9.795578 1  362             Tx   d 5 10 11 00 00 00  Length = 180000 BitCount = 93 ID = 866
   9.795764 1  362             Tx   d 5 10 11 00 00 00  Length = 180000 BitCount = 93 ID = 866
   9.800118 1  250             Tx   d 1 01  Length = 112000 BitCount = 59 ID = 592
   9.800234 1  270             Tx   d 1 01  Length = 110000 BitCount = 58 ID = 624
   9.900132 1  121             Tx   d 2 FE 01  Length = 126000 BitCount = 66 ID = 289
   9.900300 1  118             Tx   d 4 01 00 FE 01  Length = 162000 BitCount = 84 ID = 280
   9.900432 1  121             Tx   d 2 FE 01  Length = 126000 BitCount = 66 ID = 289
   9.900600 1  118             Tx   d 4 01 00 FE 01  Length = 162000 BitCount = 84 ID = 280
   9.900734 1  121             Tx   d 2 08 02  Length = 128000 BitCount = 67 ID = 289
   9.900904 1  118             Tx   d 4 01 00 08 02  Length = 164000 BitCount = 85 ID = 280
   9.901038 1  121             Tx   d 2 08 02  Length = 128000 BitCount = 67 ID = 289
   9.901208 1  118             Tx   d 4 01 00 08 02  Length = 164000 BitCount = 85 ID = 280
   9.901338 1  121             Tx   d 2 12 02  Length = 124000 BitCount = 65 ID = 289
   9.901506 1  118             Tx   d 4 01 00 12 02  Length = 162000 BitCount = 84 ID = 280
   9.901636 1  121             Tx   d 2 12 02  Length = 124000 BitCount = 65 ID = 289
   9.901804 1  118             Tx   d 4 01 00 12 02  Length = 162000 BitCount = 84 ID = 280
   9.901934 1  121             Tx   d 2 1C 02  Length = 124000 BitCount = 65 ID = 289
   9.902104 1  118             Tx   d 4 01 00 1C 02  Length = 164000 BitCount = 85 ID = 280
   9.902234 1  121             Tx   d 2 1C 02  Length = 124000 BitCount = 65 ID = 289
   9.902404 1  118             Tx   d 4 01 00 1C 02  Length = 164000 BitCount = 85 ID = 280
   9.902522 1  250             Tx   d 1 01  Length = 112000 BitCount = 59 ID = 592
   9.902640 1  250             Tx   d 1 01  Length = 112000 BitCount = 59 ID = 592
   9.902758 1  250             Tx   d 1 01  Length = 112000 BitCount = 59 ID = 592
   9.902876 1  250             Tx   d 1 01  Length = 112000 BitCount = 59 ID = 592
   9.902994 1  250             Tx   d 1 01  Length = 112000 BitCount = 59 ID = 592
   9.903112 1  250             Tx   d 1 01  Length = 112000 BitCount = 59 ID = 592
   9.903230 1  250             Tx   d 1 01  Length = 112000 BitCount = 59 ID = 592
   9.903348 1  250             Tx   d 1 01  Length = 112000 BitCount = 59 ID = 592
   9.903464 1  270             Tx   d 1 01  Length = 110000 BitCount = 58 ID = 624
   9.903580 1  270             Tx   d 1 01  Length = 110000 BitCount = 58 ID = 624
   9.903696 1  270             Tx   d 1 01  Length = 110000 BitCount = 58 ID = 624
   9.903812 1  270             Tx   d 1 01  Length = 110000 BitCount = 58 ID = 624
   9.903928 1  270             Tx   d 1 01  Length = 110000 BitCount = 58 ID = 624
   9.904044 1  270             Tx   d 1 01  Length = 110000 BitCount = 58 ID = 624
   9.904160 1  270             Tx   d 1 01  Length = 110000 BitCount = 58 ID = 624
   9.904276 1  270             Tx   d 1 01  Length = 110000 BitCount = 58 ID = 624
   9.904462 1  362             Tx   d 5 67 11 00 00 00  Length = 180000 BitCount = 93 ID = 866
   9.904648 1  362             Tx   d 5 67 11 00 00 00  Length = 180000 BitCount = 93 ID = 866
   9.904838 1  362             Tx   d 5 BE 11 00 00 00  Length = 184000 BitCount = 95 ID = 866
   9.905028 1  362             Tx   d 5 BE 11 00 00 00  Length = 184000 BitCount = 95 ID = 866
   9.905216 1  362             Tx   d 5 16 12 00 00 00  Length = 182000 BitCount = 94 ID = 866
   9.905404 1  362             Tx   d 5 16 12 00 00 00  Length = 182000 BitCount = 94 ID = 866
   9.905590 1  362             Tx   d 5 6D 12 00 00 00  Length = 180000 BitCount = 93 ID = 866
   9.905776 1  362             Tx   d 5 6D 12 00 00 00  Length = 180000 BitCount = 93 ID = 866
  10.000000 1  Statistic: D 150 R 0 XD 0 XR 0 E 0 O 0 B 2.39%
  10.000118 1  250             Tx   d 1 01  Length = 112000 BitCount = 59 ID = 592
  10.000234 1  270             Tx   d 1 01  Length = 110000 BitCount = 58 ID = 624
  10.000370 1  300             Tx   d 2 00 00  Length = 130000 BitCount = 68 ID = 768
  10.010132 1  121             Tx   d 2 26 02  Length = 126000 BitCount = 66 ID = 289
  10.010300 1  118             Tx   d 4 01 00 26 02  Length = 162000 BitCount = 84 ID = 280
  10.010432 1  121             Tx   d 2 26 02  Length = 126000 BitCount = 66 ID = 289
  10.010600 1  118             Tx   d 4 01 00 26 02  Length = 162000 BitCount = 84 ID = 280
  10.010732 1  121             Tx   d 2 30 02  Length = 126000 BitCount = 66 ID = 289
  10.010902 1  118             Tx   d 4 01 00 30 02  Length = 164000 BitCount = 85 ID = 280
  10.011034 1  121             Tx   d 2 30 02  Length = 126000 BitCount = 66 ID = 289
  10.011204 1  118             Tx   d 4 01 00 30 02  Length = 164000 BitCount = 85 ID = 280
  10.011334 1  121             Tx   d 2 3A 02  Length = 124000 BitCount = 65 ID = 289
  10.011506 1  118             Tx   d 4 01 00 3A 02  Length = 166000 BitCount = 86 ID = 280
  10.011636 1  121             Tx   d 2 3A 02  Length = 124000 BitCount = 65 ID = 289
  10.011808 1  118             Tx   d 4 01 00 3A 02  Length = 166000 BitCount = 86 ID = 280
  10.011938 1  121             Tx   d 2 44 02  Length = 124000 BitCount = 65 ID = 289
  10.012104 1  118             Tx   d 4 01 00 44 02  Length = 160000 BitCount = 83 ID = 280
  10.012234 1  121             Tx   d 2 44 02  Length = 124000 BitCount = 65 ID = 289
  10.012400 1  118             Tx   d 4 01 00 44 02  Length = 160000 BitCount = 83 ID = 280
  10.012518 1  250             Tx   d 1 01  Length = 112000 BitCount = 59 ID = 592
  10.012636 1  250             Tx   d 1 01  Length = 112000 BitCount = 59 ID = 592
  10.012754 1  250             Tx   d 1 01  Length = 112000 BitCount = 59 ID = 592
  10.012872 1  250             Tx   d 1 01  Length = 112000 BitCount = 59 ID = 592
  10.012990 1  250             Tx   d 1 01  Length = 112000 BitCount = 59 ID = 592
  10.013108 1  250             Tx   d 1 01  Length = 112000 BitCount = 59 ID = 592
  10.013226 1  250             Tx   d 1 01  Length = 112000 BitCount = 59 ID = 592
  10.013344 1  250             Tx   d 1 01  Length = 112000 BitCount = 59 ID = 592
  10.013460 1  270             Tx   d 1 01  Length = 110000 BitCount = 58 ID = 624
  10.013576 1  270             Tx   d 1 01  Length = 110000 BitCount = 58 ID = 624
  10.013692 1  270             Tx   d 1 01  Length = 110000 BitCount = 58 ID = 624
  10.013808 1  270             Tx   d 1 01  Length = 110000 BitCount = 58 ID = 624
  10.013924 1  270             Tx   d 1 01  Length = 110000 BitCount = 58 ID = 624
  10.014040 1  270             Tx   d 1 01  Length = 110000 BitCount = 58 ID = 624
  10.014156 1  270             Tx   d 1 01  Length = 110000 BitCount = 58 ID = 624
  10.014272 1  270             Tx   d 1 01  Length = 110000 BitCount = 58 ID = 624
  10.014460 1  362             Tx   d 5 C4 12 00 00 00  Length = 182000 BitCount = 94 ID = 866
  10.014648 1  362             Tx   d 5 C4 12 00 00 00  Length = 182000 BitCount = 94 ID = 866
  10.014834 1  362             Tx   d 5 1C 13 00 00 00  Length = 180000 BitCount = 93 ID = 866
  10.015020 1  362             Tx   d 5 1C 13 00 00 00  Length = 180000 BitCount = 93 ID = 866
  10.015208 1  362             Tx   d 5 73 13 00 00 00  Length = 182000 BitCount = 94 ID = 866
  10.015396 1  362             Tx   d 5 73 13 00 00 00  Length = 182000 BitCount = 94 ID = 866
  10.015584 1  362             Tx   d 5 CA 13 00 00 00  Length = 182000 BitCount = 94 ID = 866
  10.015772 1  362             Tx   d 5 CA 13 00 00 00  Length = 182000 BitCount = 94 ID = 866
  10.120130 1  121             Tx   d 2 4E 02  Length = 124000 BitCount = 65 ID = 289
  10.120298 1  118             Tx   d 4 01 00 4E 02  Length = 162000 BitCount = 84 ID = 280
  10.120428 1  121             Tx   d 2 4E 02  Length = 124000 BitCount = 65 ID = 289
  10.120596 1  118             Tx   d 4 01 00 4E 02  Length = 162000 BitCount = 84 ID = 280
  10.120728 1  121             Tx   d 2 58 02  Length = 126000 BitCount = 66 ID = 289
  10.120896 1  118             Tx   d 4 01 00 58 02  Length = 162000 BitCount = 84 ID = 280
  10.121028 1  121             Tx   d 2 58 02  Length = 126000 BitCount = 66 ID = 289
  10.121196 1  118             Tx   d 4 01 00 58 02  Length = 162000 BitCount = 84 ID = 280
  10.121328 1  121             Tx   d 2 62 02  Length = 126000 BitCount = 66 ID = 289
  10.121494 1  118             Tx   d 4 01 00 62 02  Length = 160000 BitCount = 83 ID = 280
  10.121626 1  121             Tx   d 2 62 02  Length = 126000 BitCount = 66 ID = 289
  10.121792 1  118             Tx   d 4 01 00 62 02  Length = 160000 BitCount = 83 ID = 280
  10.121922 1  121             Tx   d 2 6C 02  Length = 124000 BitCount = 65 ID = 289
  10.122090 1  118             Tx   d 4 01 00 6C 02  Length = 162000 BitCount = 84 ID = 280
  10.122220 1  121             Tx   d 2 6C 02  Length = 124000 BitCount = 65 ID = 289
  10.122388 1  118             Tx   d 4 01 00 6C 02  Length = 162000 BitCount = 84 ID = 280
  10.122506 1  250             Tx   d 1 01  Length = 112000 BitCount = 59 ID = 592
  10.122624 1  250             Tx   d 1 01  Length = 112000 BitCount = 59 ID = 592
  10.122742 1  250             Tx   d 1 01  Length = 112000 BitCount = 59 ID = 592
  10.122860 1  250             Tx   d 1 01  Length = 112000 BitCount = 59 ID = 592
  10.122978 1  250             Tx   d 1 01  Length = 112000 BitCount = 59 ID = 592
  10.123096 1  250             Tx   d 1 01  Length = 112000 BitCount = 59 ID = 592
  10.123214 1  250             Tx   d 1 01  Length = 112000 BitCount = 59 ID = 592
  10.123332 1  250             Tx   d 1 01  Length = 112000 BitCount = 59 ID = 592
  10.123448 1  270             Tx   d 1 01  Length = 110000 BitCount = 58 ID = 624
  10.123564 1  270             Tx   d 1 01  Length = 110000 BitCount = 58 ID = 624
  10.123680 1  270             Tx   d 1 01  Length = 110000 BitCount = 58 ID = 624
  10.123796 1  270             Tx   d 1 01  Length = 110000 BitCount = 58 ID = 624
  10.123912 1  270             Tx   d 1 01  Length = 110000 BitCount = 58 ID = 624
  10.124028 1  270             Tx   d 1 01  Length = 110000 BitCount = 58 ID = 624
  10.124144 1  270             Tx   d 1 01  Length = 110000 BitCount = 58 ID = 624
  10.124260 1  270             Tx   d 1 01  Length = 110000 BitCount = 58 ID = 624
  10.124450 1  362             Tx   d 5 22 14 00 00 00  Length = 184000 BitCount = 95 ID = 866
  10.124640 1  362             Tx   d 5 22 14 00 00 00  Length = 184000 BitCount = 95 ID = 866
  10.124828 1  362             Tx   d 5 79 14 00 00 00  Length = 182000 BitCount = 94 ID = 866
  10.125016 1  362             Tx   d 5 79 14 00 00 00  Length = 182000 BitCount = 94 ID = 866
  10.125204 1  362             Tx   d 5 D0 14 00 00 00  Length = 182000 BitCount = 94 ID = 866
  10.125392 1  362             Tx   d 5 D0 14 00 00 00  Length = 182000 BitCount = 94 ID = 866
  10.125580 1  362             Tx   d 5 28 15 00 00 00  Length = 182000 BitCount = 94 ID = 866
  10.125768 1  362             Tx   d 5 28 15 00 00 00  Length = 182000 BitCount = 94 ID = 866
  10.200118 1  250             Tx   d 1 01  Length = 112000 BitCount = 59 ID = 592
  10.200234 1  270             Tx   d 1 01  Length = 110000 BitCount = 58 ID = 624
  10.230130 1  121             Tx   d 2 76 02  Length = 124000 BitCount = 65 ID = 289
  10.230298 1  118             Tx   d 4 01 00 76 02  Length = 162000 BitCount = 84 ID = 280
  10.230428 1  121             Tx   d 2 76 02  Length = 124000 BitCount = 65 ID = 289
  10.230596 1  118             Tx   d 4 01 00 76 02  Length = 162000 BitCount = 84 ID = 280
  10.230728 1  121             Tx   d 2 80 02  Length = 126000 BitCount = 66 ID = 289
  10.230896 1  118             Tx   d 4 01 00 80 02  Length = 162000 BitCount = 84 ID = 280
  10.231028 1  121             Tx   d 2 80 02  Length = 126000 BitCount = 66 ID = 289
  10.231196 1  118             Tx   d 4 01 00 80 02  Length = 162000 BitCount = 84 ID = 280
  10.231330 1  121             Tx   d 2 8A 02  Length = 128000 BitCount = 67 ID = 289
  10.231496 1  118             Tx   d 4 01 00 8A 02  Length = 160000 BitCount = 83 ID = 280
  10.231630 1  121             Tx   d 2 8A 02  Length = 128000 BitCount = 67 ID = 289
  10.231796 1  118             Tx   d 4 01 00 8A 02  Length = 160000 BitCount = 83 ID = 280
  10.231914 1  250             Tx   d 1 01  Length = 112000 BitCount = 59 ID = 592
  10.232032 1  250             Tx   d 1 01  Length = 112000 BitCount = 59 ID = 592
  10.232150 1  250             Tx   d 1 01  Length = 112000 BitCount = 59 ID = 592
  10.232268 1  250             Tx   d 1 01  Length = 112000 BitCount = 59 ID = 592
  10.232386 1  250             Tx   d 1 01  Length = 112000 BitCount = 59 ID = 592
  10.232504 1  250             Tx   d 1 01  Length = 112000 BitCount = 59 ID = 592
  10.232620 1  270             Tx   d 1 01  Length = 110000 BitCount = 58 ID = 624
  10.232736 1  270             Tx   d 1 01  Length = 110000 BitCount = 58 ID = 624
  10.232852 1  270             Tx   d 1 01  Length = 110000 BitCount = 58 ID = 624
  10.232968 1  270             Tx   d 1 01  Length = 110000 BitCount = 58 ID = 624
  10.233084 1  270             Tx   d 1 01  Length = 110000 BitCount = 58 ID = 624
  10.233200 1  270             Tx   d 1 01  Length = 110000 BitCount = 58 ID = 624
  10.233388 1  362             Tx   d 5 7F 15 00 00 00  Length = 182000 BitCount = 94 ID = 866
  10.233576 1  362             Tx   d 5 7F 15 00 00 00  Length = 182000 BitCount = 94 ID = 866
  10.233762 1  362             Tx   d 5 D7 15 00 00 00  Length = 180000 BitCount = 93 ID = 866
  10.233948 1  362             Tx   d 5 D7 15 00 00 00  Length = 180000 BitCount = 93 ID = 866
  10.234134 1  362             Tx   d 5 2E 16 00 00 00  Length = 180000 BitCount = 93 ID = 866
  10.234320 1  362             Tx   d 5 2E 16 00 00 00  Length = 180000 BitCount = 93 ID = 866
  10.340132 1  121             Tx   d 2 94 02  Length = 126000 BitCount = 66 ID = 289
  10.340300 1  118             Tx   d 4 01 00 94 02  Length = 162000 BitCount = 84 ID = 280
  10.340432 1  121             Tx   d 2 94 02  Length = 126000 BitCount = 66 ID = 289
  10.340600 1  118             Tx   d 4 01 00 94 02  Length = 162000 BitCount = 84 ID = 280
  10.340730 1  121             Tx   d 2 9E 02  Length = 124000 BitCount = 65 ID = 289
  10.340896 1  118             Tx   d 4 01 00 9E 02  Length = 160000 BitCount = 83 ID = 280
  10.341026 1  121             Tx   d 2 9E 02  Length = 124000 BitCount = 65 ID = 289
  10.341192 1  118             Tx   d 4 01 00 9E 02  Length = 160000 BitCount = 83 ID = 280
  10.341322 1  121             Tx   d 2 A8 02  Length = 124000 BitCount = 65 ID = 289
  10.341490 1  118             Tx   d 4 01 00 A8 02  Length = 162000 BitCount = 84 ID = 280
  10.341620 1  121             Tx   d 2 A8 02  Length = 124000 BitCount = 65 ID = 289
  10.341788 1  118             Tx   d 4 01 00 A8 02  Length = 162000 BitCount = 84 ID = 280
  10.341918 1  121             Tx   d 2 B2 02  Length = 124000 BitCount = 65 ID = 289
  10.342088 1  118             Tx   d 4 01 00 B2 02  Length = 164000 BitCount = 85 ID = 280
  10.342218 1  121             Tx   d 2 B2 02  Length = 124000 BitCount = 65 ID = 289
  10.342388 1  118             Tx   d 4 01 00 B2 02  Length = 164000 BitCount = 85 ID = 280
  10.342506 1  250             Tx   d 1 01  Length = 112000 BitCount = 59 ID = 592
  10.342624 1  250             Tx   d 1 01  Length = 112000 BitCount = 59 ID = 592
  10.342742 1  250             Tx   d 1 01  Length = 112000 BitCount = 59 ID = 592
  10.342860 1  250             Tx   d 1 01  Length = 112000 BitCount = 59 ID = 592
  10.342978 1  250             Tx   d 1 01  Length = 112000 BitCount = 59 ID = 592
  10.343096 1  250             Tx   d 1 01  Length = 112000 BitCount = 59 ID = 592
  10.343214 1  250             Tx   d 1 01  Length = 112000 BitCount = 59 ID = 592
  10.343332 1  250             Tx   d 1 01  Length = 112000 BitCount = 59 ID = 592
  10.343448 1  270             Tx   d 1 01  Length = 110000 BitCount = 58 ID = 624
  10.343564 1  270             Tx   d 1 01  Length = 110000 BitCount = 58 ID = 624
  10.343680 1  270             Tx   d 1 01  Length = 110000 BitCount = 58 ID = 624
  10.343796 1  270             Tx   d 1 01  Length = 110000 BitCount = 58 ID = 624
  10.343912 1  270             Tx   d 1 01  Length = 110000 BitCount = 58 ID = 624
  10.344028 1  270             Tx   d 1 01  Length = 110000 BitCount = 58 ID = 624
  10.344144 1  270             Tx   d 1 01  Length = 110000 BitCount = 58 ID = 624
  10.344260 1  270             Tx   d 1 01  Length = 110000 BitCount = 58 ID = 624
  10.344446 1  362             Tx   d 5 85 16 00 00 00  Length = 180000 BitCount = 93 ID = 866
  10.344632 1  362             Tx   d 5 85 16 00 00 00  Length = 180000 BitCount = 93 ID = 866
  10.344822 1  362             Tx   d 5 DD 16 00 00 00  Length = 184000 BitCount = 95 ID = 866
  10.345012 1  362             Tx   d 5 DD 16 00 00 00  Length = 184000 BitCount = 95 ID = 866
  10.345198 1  362             Tx   d 5 34 17 00 00 00  Length = 180000 BitCount = 93 ID = 866
  10.345384 1  362             Tx   d 5 34 17 00 00 00  Length = 180000 BitCount = 93 ID = 866
  10.345572 1  362             Tx   d 5 8B 17 00 00 00  Length = 182000 BitCount = 94 ID = 866
  10.345760 1  362             Tx   d 5 8B 17 00 00 00  Length = 182000 BitCount = 94 ID = 866
  10.400118 1  250             Tx   d 1 01  Length = 112000 BitCount = 59 ID = 592
  10.400234 1  270             Tx   d 1 01  Length = 110000 BitCount = 58 ID = 624
  10.450130 1  121             Tx   d 2 BC 02  Length = 124000 BitCount = 65 ID = 289
  10.450298 1  118             Tx   d 4 01 00 BC 02  Length = 162000 BitCount = 84 ID = 280
  10.450428 1  121             Tx   d 2 BC 02  Length = 124000 BitCount = 65 ID = 289
  10.450596 1  118             Tx   d 4 01 00 BC 02  Length = 162000 BitCount = 84 ID = 280
  10.450728 1  121             Tx   d 2 C6 02  Length = 126000 BitCount = 66 ID = 289
  10.450894 1  118             Tx   d 4 01 00 C6 02  Length = 160000 BitCount = 83 ID = 280
  10.451026 1  121             Tx   d 2 C6 02  Length = 126000 BitCount = 66 ID = 289
  10.451192 1  118             Tx   d 4 01 00 C6 02  Length = 160000 BitCount = 83 ID = 280
  10.451324 1  121             Tx   d 2 D0 02  Length = 126000 BitCount = 66 ID = 289
  10.451492 1  118             Tx   d 4 01 00 D0 02  Length = 162000 BitCount = 84 ID = 280
  10.451624 1  121             Tx   d 2 D0 02  Length = 126000 BitCount = 66 ID = 289
  10.451792 1  118             Tx   d 4 01 00 D0 02  Length = 162000 BitCount = 84 ID = 280
  10.451922 1  121             Tx   d 2 DA 02  Length = 124000 BitCount = 65 ID = 289
  10.452090 1  118             Tx   d 4 01 00 DA 02  Length = 162000 BitCount = 84 ID = 280
  10.452220 1  121             Tx   d 2 DA 02  Length = 124000 BitCount = 65 ID = 289
  10.452388 1  118             Tx   d 4 01 00 DA 02  Length = 162000 BitCount = 84 ID = 280
  10.452506 1  250             Tx   d 1 01  Length = 112000 BitCount = 59 ID = 592
  10.452624 1  250             Tx   d 1 01  Length = 112000 BitCount = 59 ID = 592
  10.452742 1  250             Tx   d 1 01  Length = 112000 BitCount = 59 ID = 592
  10.452860 1  250             Tx   d 1 01  Length = 112000 BitCount = 59 ID = 592
  10.452978 1  250             Tx   d 1 01  Length = 112000 BitCount = 59 ID = 592
  10.453096 1  250             Tx   d 1 01  Length = 112000 BitCount = 59 ID = 592
  10.453214 1  250             Tx   d 1 01  Length = 112000 BitCount = 59 ID = 592
  10.453332 1  250             Tx   d 1 01  Length = 112000 BitCount = 59 ID = 592
  10.453448 1  270             Tx   d 1 01  Length = 110000 BitCount = 58 ID = 624
  10.453564 1  270             Tx   d 1 01  Length = 110000 BitCount = 58 ID = 624
  10.453680 1  270             Tx   d 1 01  Length = 110000 BitCount = 58 ID = 624
  10.453796 1  270             Tx   d 1 01  Length = 110000 BitCount = 58 ID = 624
  10.453912 1  270             Tx   d 1 01  Length = 110000 BitCount = 58 ID = 624
  10.454028 1  270             Tx   d 1 01  Length = 110000 BitCount = 58 ID = 624
  10.454144 1  270             Tx   d 1 01  Length = 110000 BitCount = 58 ID = 624
  10.454260 1  270             Tx   d 1 01  Length = 110000 BitCount = 58 ID = 624
  10.454446 1  362             Tx   d 5 E3 17 00 00 00  Length = 180000 BitCount = 93 ID = 866
  10.454632 1  362             Tx   d 5 E3 17 00 00 00  Length = 180000 BitCount = 93 ID = 866
  10.454818 1  362             Tx   d 5 3A 18 00 00 00  Length = 180000 BitCount = 93 ID = 866
  10.455004 1  362             Tx   d 5 3A 18 00 00 00  Length = 180000 BitCount = 93 ID = 866
  10.455194 1  362             Tx   d 5 91 18 00 00 00  Length = 184000 BitCount = 95 ID = 866
  10.455384 1  362             Tx   d 5 91 18 00 00 00  Length = 184000 BitCount = 95 ID = 866
  10.455570 1  362             Tx   d 5 E9 18 00 00 00  Length = 180000 BitCount = 93 ID = 866
  10.455756 1  362             Tx   d 5 E9 18 00 00 00  Length = 180000 BitCount = 93 ID = 866
  10.560130 1  121             Tx   d 2 E4 02  Length = 124000 BitCount = 65 ID = 289
  10.560296 1  118             Tx   d 4 01 00 E4 02  Length = 160000 BitCount = 83 ID = 280
  10.560426 1  121             Tx   d 2 E4 02  Length = 124000 BitCount = 65 ID = 289
  10.560592 1  118             Tx   d 4 01 00 E4 02  Length = 160000 BitCount = 83 ID = 280
  10.560724 1  121             Tx   d 2 EE 02  Length = 126000 BitCount = 66 ID = 289
  10.560890 1  118             Tx   d 4 01 00 EE 02  Length = 160000 BitCount = 83 ID = 280
  10.561022 1  121             Tx   d 2 EE 02  Length = 126000 BitCount = 66 ID = 289
  10.561188 1  118             Tx   d 4 01 00 EE 02  Length = 160000 BitCount = 83 ID = 280
  10.561322 1  121             Tx   d 2 F8 02  Length = 128000 BitCount = 67 ID = 289
  10.561492 1  118             Tx   d 4 01 00 F8 02  Length = 164000 BitCount = 85 ID = 280
  10.561626 1  121             Tx   d 2 F8 02  Length = 128000 BitCount = 67 ID = 289
  10.561796 1  118             Tx   d 4 01 00 F8 02  Length = 164000 BitCount = 85 ID = 280
  10.561928 1  121             Tx   d 2 02 03  Length = 126000 BitCount = 66 ID = 289
  10.562096 1  118             Tx   d 4 01 00 02 03  Length = 162000 BitCount = 84 ID = 280
  10.562228 1  121             Tx   d 2 02 03  Length = 126000 BitCount = 66 ID = 289
  10.562396 1  118             Tx   d 4 01 00 02 03  Length = 162000 BitCount = 84 ID = 280
  10.562514 1  250             Tx   d 1 01  Length = 112000 BitCount = 59 ID = 592
  10.562632 1  250             Tx   d 1 01  Length = 112000 BitCount = 59 ID = 592
  10.562750 1  250             Tx   d 1 01  Length = 112000 BitCount = 59 ID = 592
  10.562868 1  250             Tx   d 1 01  Length = 112000 BitCount = 59 ID = 592
  10.562986 1  250             Tx   d 1 01  Length = 112000 BitCount = 59 ID = 592
  10.563104 1  250             Tx   d 1 01  Length = 112000 BitCount = 59 ID = 592
  10.563222 1  250             Tx   d 1 01  Length = 112000 BitCount = 59 ID = 592
  10.563340 1  250             Tx   d 1 01  Length = 112000 BitCount = 59 ID = 592
  10.563456 1  270             Tx   d 1 01  Length = 110000 BitCount = 58 ID = 624
  10.563572 1  270             Tx   d 1 01  Length = 110000 BitCount = 58 ID = 624
  10.563688 1  270             Tx   d 1 01  Length = 110000 BitCount = 58 ID = 624
  10.563804 1  270             Tx   d 1 01  Length = 110000 BitCount = 58 ID = 624
  10.563920 1  270             Tx   d 1 01  Length = 110000 BitCount = 58 ID = 624
  10.564036 1  270             Tx   d 1 01  Length = 110000 BitCount = 58 ID = 624
  10.564152 1  270             Tx   d 1 01  Length = 110000 BitCount = 58 ID = 624
  10.564268 1  270             Tx   d 1 01  Length = 110000 BitCount = 58 ID = 624
  10.564456 1  362             Tx   d 5 40 19 00 00 00  Length = 182000 BitCount = 94 ID = 866
  10.564644 1  362             Tx   d 5 40 19 00 00 00  Length = 182000 BitCount = 94 ID = 866
  10.564832 1  362             Tx   d 5 98 19 00 00 00  Length = 182000 BitCount = 94 ID = 866
  10.565020 1  362             Tx   d 5 98 19 00 00 00  Length = 182000 BitCount = 94 ID = 866
  10.565208 1  362             Tx   d 5 EF 19 00 00 00  Length = 182000 BitCount = 94 ID = 866
  10.565396 1  362             Tx   d 5 EF 19 00 00 00  Length = 182000 BitCount = 94 ID = 866
  10.565582 1  362             Tx   d 5 46 1A 00 00 00  Length = 180000 BitCount = 93 ID = 866
  10.565768 1  362             Tx   d 5 46 1A 00 00 00  Length = 180000 BitCount = 93 ID = 866
  10.600118 1  250             Tx   d 1 01  Length = 112000 BitCount = 59 ID = 592
  10.600234 1  270             Tx   d 1 01  Length = 110000 BitCount = 58 ID = 624
  10.670132 1  121             Tx   d 2 0C 03  Length = 126000 BitCount = 66 ID = 289
  10.670300 1  118             Tx   d 4 01 00 0C 03  Length = 162000 BitCount = 84 ID = 280
  10.670432 1  121             Tx   d 2 0C 03  Length = 126000 BitCount = 66 ID = 289
  10.670600 1  118             Tx   d 4 01 00 0C 03  Length = 162000 BitCount = 84 ID = 280
  10.670730 1  121             Tx   d 2 16 03  Length = 124000 BitCount = 65 ID = 289
  10.670898 1  118             Tx   d 4 01 00 16 03  Length = 162000 BitCount = 84 ID = 280
  10.671028 1  121             Tx   d 2 16 03  Length = 124000 BitCount = 65 ID = 289
  10.671196 1  118             Tx   d 4 01 00 16 03  Length = 162000 BitCount = 84 ID = 280
  10.671328 1  121             Tx   d 2 20 03  Length = 126000 BitCount = 66 ID = 289
  10.671502 1  118             Tx   d 4 01 00 20 03  Length = 168000 BitCount = 87 ID = 280
  10.671634 1  121             Tx   d 2 20 03  Length = 126000 BitCount = 66 ID = 289
  10.671808 1  118             Tx   d 4 01 00 20 03  Length = 168000 BitCount = 87 ID = 280
  10.671926 1  250             Tx   d 1 01  Length = 112000 BitCount = 59 ID = 592
  10.672044 1  250             Tx   d 1 01  Length = 112000 BitCount = 59 ID = 592
  10.672162 1  250             Tx   d 1 01  Length = 112000 BitCount = 59 ID = 592
  10.672280 1  250             Tx   d 1 01  Length = 112000 BitCount = 59 ID = 592
  10.672398 1  250             Tx   d 1 01  Length = 112000 BitCount = 59 ID = 592
  10.672516 1  250             Tx   d 1 01  Length = 112000 BitCount = 59 ID = 592
  10.672632 1  270             Tx   d 1 01  Length = 110000 BitCount = 58 ID = 624
  10.672748 1  270             Tx   d 1 01  Length = 110000 BitCount = 58 ID = 624
  10.672864 1  270             Tx   d 1 01  Length = 110000 BitCount = 58 ID = 624
  10.672980 1  270             Tx   d 1 01  Length = 110000 BitCount = 58 ID = 624
  10.673096 1  270             Tx   d 1 01  Length = 110000 BitCount = 58 ID = 624
  10.673212 1  270             Tx   d 1 01  Length = 110000 BitCount = 58 ID = 624
  10.673398 1  362             Tx   d 5 9E 1A 00 00 00  Length = 180000 BitCount = 93 ID = 866
  10.673584 1  362             Tx   d 5 9E 1A 00 00 00  Length = 180000 BitCount = 93 ID = 866
  10.673774 1  362             Tx   d 5 F5 1A 00 00 00  Length = 184000 BitCount = 95 ID = 866
  10.673964 1  362             Tx   d 5 F5 1A 00 00 00  Length = 184000 BitCount = 95 ID = 866
  10.674154 1  362             Tx   d 5 4C 1B 00 00 00  Length = 184000 BitCount = 95 ID = 866
  10.674344 1  362             Tx   d 5 4C 1B 00 00 00  Length = 184000 BitCount = 95 ID = 866
  10.780130 1  121             Tx   d 2 2A 03  Length = 124000 BitCount = 65 ID = 289
  10.780300 1  118             Tx   d 4 01 00 2A 03  Length = 164000 BitCount = 85 ID = 280
  10.780430 1  121             Tx   d 2 2A 03  Length = 124000 BitCount = 65 ID = 289
  10.780600 1  118             Tx   d 4 01 00 2A 03  Length = 164000 BitCount = 85 ID = 280
  10.780732 1  121             Tx   d 2 34 03  Length = 126000 BitCount = 66 ID = 289
  10.780904 1  118             Tx   d 4 01 00 34 03  Length = 166000 BitCount = 86 ID = 280
  10.781036 1  121             Tx   d 2 34 03  Length = 126000 BitCount = 66 ID = 289
  10.781208 1  118             Tx   d 4 01 00 34 03  Length = 166000 BitCount = 86 ID = 280
  10.781342 1  121             Tx   d 2 3E 03  Length = 128000 BitCount = 67 ID = 289
  10.781512 1  118             Tx   d 4 01 00 3E 03  Length = 164000 BitCount = 85 ID = 280
  10.781646 1  121             Tx   d 2 3E 03  Length = 128000 BitCount = 67 ID = 289
  10.781816 1  118             Tx   d 4 01 00 3E 03  Length = 164000 BitCount = 85 ID = 280
  10.781946 1  121             Tx   d 2 48 03  Length = 124000 BitCount = 65 ID = 289
  10.782116 1  118             Tx   d 4 01 00 48 03  Length = 164000 BitCount = 85 ID = 280
  10.782246 1  121             Tx   d 2 48 03  Length = 124000 BitCount = 65 ID = 289
  10.782416 1  118             Tx   d 4 01 00 48 03  Length = 164000 BitCount = 85 ID = 280
  10.782546 1  121             Tx   d 2 52 03  Length = 124000 BitCount = 65 ID = 289
  10.782714 1  118             Tx   d 4 01 00 52 03  Length = 162000 BitCount = 84 ID = 280
  10.782844 1  121             Tx   d 2 52 03  Length = 124000 BitCount = 65 ID = 289
  10.783012 1  118             Tx   d 4 01 00 52 03  Length = 162000 BitCount = 84 ID = 280
  10.783130 1  250             Tx   d 1 01  Length = 112000 BitCount = 59 ID = 592
  10.783248 1  250             Tx   d 1 01  Length = 112000 BitCount = 59 ID = 592
  10.783366 1  250             Tx   d 1 01  Length = 112000 BitCount = 59 ID = 592
  10.783484 1  250             Tx   d 1 01  Length = 112000 BitCount = 59 ID = 592
  10.783602 1  250             Tx   d 1 01  Length = 112000 BitCount = 59 ID = 592
  10.783720 1  250             Tx   d 1 01  Length = 112000 BitCount = 59 ID = 592
  10.783838 1  250             Tx   d 1 01  Length = 112000 BitCount = 59 ID = 592
  10.783956 1  250             Tx   d 1 01  Length = 112000 BitCount = 59 ID = 592
  10.784074 1  250             Tx   d 1 01  Length = 112000 BitCount = 59 ID = 592
  10.784192 1  250             Tx   d 1 01  Length = 112000 BitCount = 59 ID = 592
  10.784308 1  270             Tx   d 1 01  Length = 110000 BitCount = 58 ID = 624
  10.784424 1  270             Tx   d 1 01  Length = 110000 BitCount = 58 ID = 624
  10.784540 1  270             Tx   d 1 01  Length = 110000 BitCount = 58 ID = 624
  10.784656 1  270             Tx   d 1 01  Length = 110000 BitCount = 58 ID = 624
  10.784772 1  270             Tx   d 1 01  Length = 110000 BitCount = 58 ID = 624
  10.784888 1  270             Tx   d 1 01  Length = 110000 BitCount = 58 ID = 624
  10.785004 1  270             Tx   d 1 01  Length = 110000 BitCount = 58 ID = 624
  10.785120 1  270             Tx   d 1 01  Length = 110000 BitCount = 58 ID = 624
  10.785236 1  270             Tx   d 1 01  Length = 110000 BitCount = 58 ID = 624
  10.785352 1  270             Tx   d 1 01  Length = 110000 BitCount = 58 ID = 624
  10.785540 1  362             Tx   d 5 A4 1B 00 00 00  Length = 182000 BitCount = 94 ID = 866
  10.785728 1  362             Tx   d 5 A4 1B 00 00 00  Length = 182000 BitCount = 94 ID = 866
  10.785914 1  362             Tx   d 5 FB 1B 00 00 00  Length = 180000 BitCount = 93 ID = 866
  10.786100 1  362             Tx   d 5 FB 1B 00 00 00  Length = 180000 BitCount = 93 ID = 866
  10.786286 1  362             Tx   d 5 52 1C 00 00 00  Length = 180000 BitCount = 93 ID = 866
  10.786472 1  362             Tx   d 5 52 1C 00 00 00  Length = 180000 BitCount = 93 ID = 866
  10.786660 1  362             Tx   d 5 AA 1C 00 00 00  Length = 182000 BitCount = 94 ID = 866
  10.786848 1  362             Tx   d 5 AA 1C 00 00 00  Length = 182000 BitCount = 94 ID = 866
  10.787038 1  362             Tx   d 5 01 1D 00 00 00  Length = 184000 BitCount = 95 ID = 866
  10.787228 1  362             Tx   d 5 01 1D 00 00 00  Length = 184000 BitCount = 95 ID = 866
  10.800118 1  250             Tx   d 1 01  Length = 112000 BitCount = 59 ID = 592
  10.800234 1  270             Tx   d 1 01  Length = 110000 BitCount = 58 ID = 624
  10.890000    SV: 2 0 0 ::CruiseOnOFF::CruiseControlOnOFF = 1
  10.890132 1  121             Tx   d 2 5C 03  Length = 126000 BitCount = 66 ID = 289
  10.890298 1  118             Tx   d 4 01 00 5C 03  Length = 160000 BitCount = 83 ID = 280
  10.890430 1  121             Tx   d 2 5C 03  Length = 126000 BitCount = 66 ID = 289
  10.890596 1  118             Tx   d 4 01 00 5C 03  Length = 160000 BitCount = 83 ID = 280
  10.890726 1  121             Tx   d 2 66 03  Length = 124000 BitCount = 65 ID = 289
  10.890896 1  118             Tx   d 4 01 00 66 03  Length = 164000 BitCount = 85 ID = 280
  10.891026 1  121             Tx   d 2 66 03  Length = 124000 BitCount = 65 ID = 289
  10.891196 1  118             Tx   d 4 01 00 66 03  Length = 164000 BitCount = 85 ID = 280
  10.891330 1  121             Tx   d 2 70 03  Length = 128000 BitCount = 67 ID = 289
  10.891498 1  118             Tx   d 4 01 00 70 03  Length = 162000 BitCount = 84 ID = 280
  10.891632 1  121             Tx   d 2 70 03  Length = 128000 BitCount = 67 ID = 289
  10.891800 1  118             Tx   d 4 01 00 70 03  Length = 162000 BitCount = 84 ID = 280
  10.891932 1  121             Tx   d 2 7A 03  Length = 126000 BitCount = 66 ID = 289
  10.892098 1  118             Tx   d 4 01 00 7A 03  Length = 160000 BitCount = 83 ID = 280
  10.892230 1  121             Tx   d 2 7A 03  Length = 126000 BitCount = 66 ID = 289
  10.892396 1  118             Tx   d 4 01 00 7A 03  Length = 160000 BitCount = 83 ID = 280
  10.892570 1  122             Tx   d 4 01 00 00 00  Length = 168000 BitCount = 87 ID = 290
  10.892688 1  250             Tx   d 1 01  Length = 112000 BitCount = 59 ID = 592
  10.892806 1  250             Tx   d 1 01  Length = 112000 BitCount = 59 ID = 592
  10.892924 1  250             Tx   d 1 01  Length = 112000 BitCount = 59 ID = 592
  10.893042 1  250             Tx   d 1 01  Length = 112000 BitCount = 59 ID = 592
  10.893160 1  250             Tx   d 1 01  Length = 112000 BitCount = 59 ID = 592
  10.893278 1  250             Tx   d 1 01  Length = 112000 BitCount = 59 ID = 592
  10.893396 1  250             Tx   d 1 01  Length = 112000 BitCount = 59 ID = 592
  10.893514 1  250             Tx   d 1 01  Length = 112000 BitCount = 59 ID = 592
  10.893630 1  270             Tx   d 1 01  Length = 110000 BitCount = 58 ID = 624
  10.893746 1  270             Tx   d 1 01  Length = 110000 BitCount = 58 ID = 624
  10.893862 1  270             Tx   d 1 01  Length = 110000 BitCount = 58 ID = 624
  10.893978 1  270             Tx   d 1 01  Length = 110000 BitCount = 58 ID = 624
  10.894094 1  270             Tx   d 1 01  Length = 110000 BitCount = 58 ID = 624
  10.894210 1  270             Tx   d 1 01  Length = 110000 BitCount = 58 ID = 624
  10.894326 1  270             Tx   d 1 01  Length = 110000 BitCount = 58 ID = 624
  10.894442 1  270             Tx   d 1 01  Length = 110000 BitCount = 58 ID = 624
  10.894630 1  362             Tx   d 5 58 1D 00 00 00  Length = 182000 BitCount = 94 ID = 866
  10.894818 1  362             Tx   d 5 58 1D 00 00 00  Length = 182000 BitCount = 94 ID = 866
  10.895004 1  362             Tx   d 5 B0 1D 00 00 00  Length = 180000 BitCount = 93 ID = 866
  10.895190 1  362             Tx   d 5 B0 1D 00 00 00  Length = 180000 BitCount = 93 ID = 866
  10.895378 1  362             Tx   d 5 07 1E 00 00 00  Length = 182000 BitCount = 94 ID = 866
  10.895566 1  362             Tx   d 5 07 1E 00 00 00  Length = 182000 BitCount = 94 ID = 866
  10.895756 1  362             Tx   d 5 5F 1E 00 00 00  Length = 184000 BitCount = 95 ID = 866
  10.895946 1  362             Tx   d 5 5F 1E 00 00 00  Length = 184000 BitCount = 95 ID = 866
  10.896062 1  401             Tx   d 1 01  Length = 110000 BitCount = 58 ID = 1025
  11.000000 1  Statistic: D 363 R 0 XD 0 XR 0 E 0 O 0 B 5.83%
  11.000132 1  121             Tx   d 2 84 03  Length = 126000 BitCount = 66 ID = 289
  11.000300 1  118             Tx   d 4 01 00 84 03  Length = 162000 BitCount = 84 ID = 280
  11.000432 1  121             Tx   d 2 84 03  Length = 126000 BitCount = 66 ID = 289
  11.000600 1  118             Tx   d 4 01 00 84 03  Length = 162000 BitCount = 84 ID = 280
  11.000730 1  121             Tx   d 2 8E 03  Length = 124000 BitCount = 65 ID = 289
  11.000896 1  118             Tx   d 4 01 00 8E 03  Length = 160000 BitCount = 83 ID = 280
  11.001026 1  121             Tx   d 2 8E 03  Length = 124000 BitCount = 65 ID = 289
  11.001192 1  118             Tx   d 4 01 00 8E 03  Length = 160000 BitCount = 83 ID = 280
  11.001324 1  121             Tx   d 2 98 03  Length = 126000 BitCount = 66 ID = 289
  11.001490 1  118             Tx   d 4 01 00 98 03  Length = 160000 BitCount = 83 ID = 280
  11.001622 1  121             Tx   d 2 98 03  Length = 126000 BitCount = 66 ID = 289
  11.001788 1  118             Tx   d 4 01 00 98 03  Length = 160000 BitCount = 83 ID = 280
  11.001906 1  250             Tx   d 1 01  Length = 112000 BitCount = 59 ID = 592
  11.002024 1  250             Tx   d 1 01  Length = 112000 BitCount = 59 ID = 592
  11.002142 1  250             Tx   d 1 01  Length = 112000 BitCount = 59 ID = 592
  11.002260 1  250             Tx   d 1 01  Length = 112000 BitCount = 59 ID = 592
  11.002378 1  250             Tx   d 1 01  Length = 112000 BitCount = 59 ID = 592
  11.002496 1  250             Tx   d 1 01  Length = 112000 BitCount = 59 ID = 592
  11.002614 1  250             Tx   d 1 01  Length = 112000 BitCount = 59 ID = 592
  11.002730 1  270             Tx   d 1 01  Length = 110000 BitCount = 58 ID = 624
  11.002846 1  270             Tx   d 1 01  Length = 110000 BitCount = 58 ID = 624
  11.002962 1  270             Tx   d 1 01  Length = 110000 BitCount = 58 ID = 624
  11.003078 1  270             Tx   d 1 01  Length = 110000 BitCount = 58 ID = 624
  11.003194 1  270             Tx   d 1 01  Length = 110000 BitCount = 58 ID = 624
  11.003310 1  270             Tx   d 1 01  Length = 110000 BitCount = 58 ID = 624
  11.003426 1  270             Tx   d 1 01  Length = 110000 BitCount = 58 ID = 624
  11.003612 1  362             Tx   d 5 B6 1E 00 00 00  Length = 180000 BitCount = 93 ID = 866
  11.003798 1  362             Tx   d 5 B6 1E 00 00 00  Length = 180000 BitCount = 93 ID = 866
  11.003986 1  362             Tx   d 5 0D 1F 00 00 00  Length = 182000 BitCount = 94 ID = 866
  11.004174 1  362             Tx   d 5 0D 1F 00 00 00  Length = 182000 BitCount = 94 ID = 866
  11.004366 1  362             Tx   d 5 65 1F 00 00 00  Length = 186000 BitCount = 96 ID = 866
  11.004558 1  362             Tx   d 5 65 1F 00 00 00  Length = 186000 BitCount = 96 ID = 866
  11.110132 1  121             Tx   d 2 A2 03  Length = 126000 BitCount = 66 ID = 289
  11.110300 1  118             Tx   d 4 01 00 A2 03  Length = 162000 BitCount = 84 ID = 280
  11.110432 1  121             Tx   d 2 A2 03  Length = 126000 BitCount = 66 ID = 289
  11.110600 1  118             Tx   d 4 01 00 A2 03  Length = 162000 BitCount = 84 ID = 280
  11.110718 1  250             Tx   d 1 01  Length = 112000 BitCount = 59 ID = 592
  11.110836 1  250             Tx   d 1 01  Length = 112000 BitCount = 59 ID = 592
  11.110952 1  270             Tx   d 1 01  Length = 110000 BitCount = 58 ID = 624
  11.111068 1  270             Tx   d 1 01  Length = 110000 BitCount = 58 ID = 624
  11.111256 1  362             Tx   d 5 BC 1F 00 00 00  Length = 182000 BitCount = 94 ID = 866
  11.111444 1  362             Tx   d 5 BC 1F 00 00 00  Length = 182000 BitCount = 94 ID = 866
  11.200118 1  250             Tx   d 1 01  Length = 112000 BitCount = 59 ID = 592
  11.200234 1  270             Tx   d 1 01  Length = 110000 BitCount = 58 ID = 624
  11.400118 1  250             Tx   d 1 01  Length = 112000 BitCount = 59 ID = 592
  11.400234 1  270             Tx   d 1 01  Length = 110000 BitCount = 58 ID = 624
  11.600118 1  250             Tx   d 1 01  Length = 112000 BitCount = 59 ID = 592
  11.600234 1  270             Tx   d 1 01  Length = 110000 BitCount = 58 ID = 624
  11.800118 1  250             Tx   d 1 01  Length = 112000 BitCount = 59 ID = 592
  11.800234 1  270             Tx   d 1 01  Length = 110000 BitCount = 58 ID = 624
  12.000000 1  Statistic: D 50 R 0 XD 0 XR 0 E 0 O 0 B 0.78%
  12.000118 1  250             Tx   d 1 01  Length = 112000 BitCount = 59 ID = 592
  12.000234 1  270             Tx   d 1 01  Length = 110000 BitCount = 58 ID = 624
  12.200118 1  250             Tx   d 1 01  Length = 112000 BitCount = 59 ID = 592
  12.200234 1  270             Tx   d 1 01  Length = 110000 BitCount = 58 ID = 624
  12.400118 1  250             Tx   d 1 01  Length = 112000 BitCount = 59 ID = 592
  12.400234 1  270             Tx   d 1 01  Length = 110000 BitCount = 58 ID = 624
  12.430132 1  121             Tx   d 2 AD 03  Length = 126000 BitCount = 66 ID = 289
  12.430298 1  118             Tx   d 4 01 00 AD 03  Length = 160000 BitCount = 83 ID = 280
  12.430464 1  122             Tx   d 4 01 00 AD 03  Length = 160000 BitCount = 83 ID = 290
  12.430582 1  250             Tx   d 1 01  Length = 112000 BitCount = 59 ID = 592
  12.430698 1  270             Tx   d 1 01  Length = 110000 BitCount = 58 ID = 624
  12.430888 1  362             Tx   d 5 1C 20 00 00 00  Length = 184000 BitCount = 95 ID = 866
  12.431004 1  401             Tx   d 1 01  Length = 110000 BitCount = 58 ID = 1025
  12.600118 1  250             Tx   d 1 01  Length = 112000 BitCount = 59 ID = 592
  12.600234 1  270             Tx   d 1 01  Length = 110000 BitCount = 58 ID = 624
  12.650130 1  121             Tx   d 2 B9 03  Length = 124000 BitCount = 65 ID = 289
  12.650298 1  118             Tx   d 4 01 00 B9 03  Length = 162000 BitCount = 84 ID = 280
  12.650468 1  122             Tx   d 4 01 00 B9 03  Length = 164000 BitCount = 85 ID = 290
  12.650586 1  250             Tx   d 1 01  Length = 112000 BitCount = 59 ID = 592
  12.650702 1  270             Tx   d 1 01  Length = 110000 BitCount = 58 ID = 624
  12.650892 1  362             Tx   d 5 85 20 00 00 00  Length = 184000 BitCount = 95 ID = 866
  12.651008 1  401             Tx   d 1 01  Length = 110000 BitCount = 58 ID = 1025
  12.760132 1  121             Tx   d 2 C6 03  Length = 126000 BitCount = 66 ID = 289
  12.760298 1  118             Tx   d 4 01 00 C6 03  Length = 160000 BitCount = 83 ID = 280
  12.760464 1  122             Tx   d 4 01 00 C6 03  Length = 160000 BitCount = 83 ID = 290
  12.760582 1  250             Tx   d 1 01  Length = 112000 BitCount = 59 ID = 592
  12.760698 1  270             Tx   d 1 01  Length = 110000 BitCount = 58 ID = 624
  12.760886 1  362             Tx   d 5 F6 20 00 00 00  Length = 182000 BitCount = 94 ID = 866
  12.761002 1  401             Tx   d 1 01  Length = 110000 BitCount = 58 ID = 1025
  12.800118 1  250             Tx   d 1 01  Length = 112000 BitCount = 59 ID = 592
  12.800234 1  270             Tx   d 1 01  Length = 110000 BitCount = 58 ID = 624
  12.870130 1  121             Tx   d 2 D4 03  Length = 124000 BitCount = 65 ID = 289
  12.870298 1  118             Tx   d 4 01 00 D4 03  Length = 162000 BitCount = 84 ID = 280
  12.870464 1  122             Tx   d 4 01 00 D4 03  Length = 160000 BitCount = 83 ID = 290
  12.870582 1  250             Tx   d 1 01  Length = 112000 BitCount = 59 ID = 592
  12.870698 1  270             Tx   d 1 01  Length = 110000 BitCount = 58 ID = 624
  12.870884 1  362             Tx   d 5 71 21 00 00 00  Length = 180000 BitCount = 93 ID = 866
  12.871000 1  401             Tx   d 1 01  Length = 110000 BitCount = 58 ID = 1025
  12.980130 1  121             Tx   d 2 E3 03  Length = 124000 BitCount = 65 ID = 289
  12.980296 1  118             Tx   d 4 01 00 E3 03  Length = 160000 BitCount = 83 ID = 280
  12.980464 1  122             Tx   d 4 01 00 E3 03  Length = 162000 BitCount = 84 ID = 290
  12.980582 1  250             Tx   d 1 01  Length = 112000 BitCount = 59 ID = 592
  12.980698 1  270             Tx   d 1 01  Length = 110000 BitCount = 58 ID = 624
  12.980884 1  362             Tx   d 5 F4 21 00 00 00  Length = 180000 BitCount = 93 ID = 866
  12.981000 1  401             Tx   d 1 01  Length = 110000 BitCount = 58 ID = 1025
  13.000000 1  Statistic: D 45 R 0 XD 0 XR 0 E 0 O 0 B 0.70%
  13.000118 1  250             Tx   d 1 01  Length = 112000 BitCount = 59 ID = 592
  13.000234 1  270             Tx   d 1 01  Length = 110000 BitCount = 58 ID = 624
  13.090132 1  121             Tx   d 2 F3 03  Length = 126000 BitCount = 66 ID = 289
  13.090298 1  118             Tx   d 4 01 00 F3 03  Length = 160000 BitCount = 83 ID = 280
  13.090466 1  122             Tx   d 4 01 00 F3 03  Length = 162000 BitCount = 84 ID = 290
  13.090584 1  250             Tx   d 1 01  Length = 112000 BitCount = 59 ID = 592
  13.090700 1  270             Tx   d 1 01  Length = 110000 BitCount = 58 ID = 624
  13.090888 1  362             Tx   d 5 80 22 00 00 00  Length = 182000 BitCount = 94 ID = 866
  13.091004 1  401             Tx   d 1 01  Length = 110000 BitCount = 58 ID = 1025
  13.200118 1  250             Tx   d 1 01  Length = 112000 BitCount = 59 ID = 592
  13.200234 1  270             Tx   d 1 01  Length = 110000 BitCount = 58 ID = 624
  13.310132 1  121             Tx   d 2 04 04  Length = 126000 BitCount = 66 ID = 289
  13.310300 1  118             Tx   d 4 01 00 04 04  Length = 162000 BitCount = 84 ID = 280
  13.310468 1  122             Tx   d 4 01 00 04 04  Length = 162000 BitCount = 84 ID = 290
  13.310586 1  250             Tx   d 1 01  Length = 112000 BitCount = 59 ID = 592
  13.310702 1  270             Tx   d 1 01  Length = 110000 BitCount = 58 ID = 624
  13.310890 1  362             Tx   d 5 14 23 00 00 00  Length = 182000 BitCount = 94 ID = 866
  13.311006 1  401             Tx   d 1 01  Length = 110000 BitCount = 58 ID = 1025
  13.400118 1  250             Tx   d 1 01  Length = 112000 BitCount = 59 ID = 592
  13.400234 1  270             Tx   d 1 01  Length = 110000 BitCount = 58 ID = 624
  13.420132 1  121             Tx   d 2 16 04  Length = 126000 BitCount = 66 ID = 289
  13.420300 1  118             Tx   d 4 01 00 16 04  Length = 162000 BitCount = 84 ID = 280
  13.420468 1  122             Tx   d 4 01 00 16 04  Length = 162000 BitCount = 84 ID = 290
  13.420586 1  250             Tx   d 1 01  Length = 112000 BitCount = 59 ID = 592
  13.420702 1  270             Tx   d 1 01  Length = 110000 BitCount = 58 ID = 624
  13.420888 1  362             Tx   d 5 B1 23 00 00 00  Length = 180000 BitCount = 93 ID = 866
  13.421004 1  401             Tx   d 1 01  Length = 110000 BitCount = 58 ID = 1025
  13.600118 1  250             Tx   d 1 01  Length = 112000 BitCount = 59 ID = 592
  13.600234 1  270             Tx   d 1 01  Length = 110000 BitCount = 58 ID = 624
  13.800118 1  250             Tx   d 1 01  Length = 112000 BitCount = 59 ID = 592
  13.800234 1  270             Tx   d 1 01  Length = 110000 BitCount = 58 ID = 624
  13.970132 1  121             Tx   d 2 0B 04  Length = 126000 BitCount = 66 ID = 289
  13.970300 1  118             Tx   d 4 01 00 0B 04  Length = 162000 BitCount = 84 ID = 280
  13.970472 1  122             Tx   d 4 01 00 0B 04  Length = 166000 BitCount = 86 ID = 290
  13.970590 1  250             Tx   d 1 01  Length = 112000 BitCount = 59 ID = 592
  13.970706 1  270             Tx   d 1 01  Length = 110000 BitCount = 58 ID = 624
  13.970894 1  362             Tx   d 5 51 23 00 00 00  Length = 182000 BitCount = 94 ID = 866
  13.971010 1  401             Tx   d 1 01  Length = 110000 BitCount = 58 ID = 1025
  14.000000 1  Statistic: D 38 R 0 XD 0 XR 0 E 0 O 0 B 0.58%
  14.000118 1  250             Tx   d 1 01  Length = 112000 BitCount = 59 ID = 592
  14.000234 1  270             Tx   d 1 01  Length = 110000 BitCount = 58 ID = 624
  14.190134 1  121             Tx   d 2 FF 03  Length = 128000 BitCount = 67 ID = 289
  14.190304 1  118             Tx   d 4 01 00 FF 03  Length = 164000 BitCount = 85 ID = 280
  14.190476 1  122             Tx   d 4 01 00 FF 03  Length = 166000 BitCount = 86 ID = 290
  14.190594 1  250             Tx   d 1 01  Length = 112000 BitCount = 59 ID = 592
  14.190710 1  270             Tx   d 1 01  Length = 110000 BitCount = 58 ID = 624
  14.190898 1  362             Tx   d 5 E8 22 00 00 00  Length = 182000 BitCount = 94 ID = 866
  14.191014 1  401             Tx   d 1 01  Length = 110000 BitCount = 58 ID = 1025
  14.200118 1  250             Tx   d 1 01  Length = 112000 BitCount = 59 ID = 592
  14.200234 1  270             Tx   d 1 01  Length = 110000 BitCount = 58 ID = 624
  14.300130 1  121             Tx   d 2 F2 03  Length = 124000 BitCount = 65 ID = 289
  14.300296 1  118             Tx   d 4 01 00 F2 03  Length = 160000 BitCount = 83 ID = 280
  14.300464 1  122             Tx   d 4 01 00 F2 03  Length = 162000 BitCount = 84 ID = 290
  14.300582 1  250             Tx   d 1 01  Length = 112000 BitCount = 59 ID = 592
  14.300698 1  270             Tx   d 1 01  Length = 110000 BitCount = 58 ID = 624
  14.300886 1  362             Tx   d 5 77 22 00 00 00  Length = 182000 BitCount = 94 ID = 866
  14.301002 1  401             Tx   d 1 01  Length = 110000 BitCount = 58 ID = 1025
